(1596299196.838062) can0 46B#05FFFFFFFFFFFFB0
(1596299196.839038) can0 07D#0020000000000000
(1596299196.840021) can0 245#0001400000800093
(1596299196.841023) can0 4F0#0000000000008000
(1596299196.843119) can0 06C#00080E1800000080
(1596299196.851119) can0 188#03830CC200000000
(1596299196.855986) can0 07A#0100000000000000
(1596299196.858276) can0 0DF#0100000000000000
(1596299196.859267) can0 230#0000000000120000
(1596299196.860254) can0 440#3207500002648000
(1596299196.863074) can0 2A0#2C2F000000030D3D
(1596299196.864024) can0 110#6429D02F00007E04
(1596299196.868216) can0 180#3DC8000003830103
(1596299196.870188) can0 0A3#000000C551040040
(1596299196.871685) can0 0F7#026801A880000300
(1596299196.872697) can0 214#0000000000000000
(1596299196.873691) can0 06C#0008091800000080
(1596299196.874648) can0 0FD#7370C019E1000000
(1596299196.875640) can0 080#0000030D3DC40505
(1596299196.878856) can0 07D#0020000000000000
(1596299196.883088) can0 07E#003B99200004E024
(1596299196.884080) can0 301#0400300000000000
(1596299196.885029) can0 0B0#17000822E11E0C00
(1596299196.886024) can0 160#0000000008000000
(1596299196.888405) can0 310#8C08000000920800
(1596299196.890118) can0 102#0000001C80030D3D
(1596299196.893617) can0 302#4110251C11FFFFFF
(1596299196.895987) can0 07A#0100000000000000
(1596299196.898102) can0 0DF#0100000000000000
(1596299196.901772) can0 2F0#0000100040000000
(1596299196.903415) can0 06C#0008091800000080
(1596299196.910058) can0 0A3#000000C551040040
(1596299196.914666) can0 201#0000000000000000
(1596299196.918166) can0 07D#0020000000000000
(1596299196.919135) can0 245#0001400000800093
(1596299196.921690) can0 0F7#026801A880000300
(1596299196.922711) can0 214#0000000000000000
(1596299196.923644) can0 0FD#5370D019E1000000
(1596299196.924587) can0 110#6429D02F00007E04
(1596299196.925543) can0 080#0000030D3DC40505
(1596299196.926521) can0 188#03830CC200000000
(1596299196.928440) can0 180#3DC8000003830103
(1596299196.931712) can0 503#0412000003000000
(1596299196.933502) can0 06C#0008091800000080
(1596299196.934482) can0 07E#003B99200004E024
(1596299196.935429) can0 0B0#17000822E11E0C00
(1596299196.936443) can0 07A#0100000000000000
(1596299196.937429) can0 160#0000000008000000
(1596299196.938433) can0 0DF#0100000000000000
(1596299196.939441) can0 304#0000000000000000
(1596299196.940374) can0 335#590D00C21A000000
(1596299196.943073) can0 330#501B030D3D030D3D
(1596299196.948371) can0 400#0401020202010201
(1596299196.949317) can0 32A#1F28300020030D3D
(1596299196.950296) can0 0A3#000000E551040040
(1596299196.951254) can0 102#0000001C80030D3D
(1596299196.952216) can0 405#100000000053414C
(1596299196.957985) can0 230#0000000000120000
(1596299196.958983) can0 07D#0020000000000000
(1596299196.959959) can0 440#3207500002648000
(1596299196.963160) can0 06C#0008091800000080
(1596299196.971689) can0 0F7#026801A880000300
(1596299196.972698) can0 214#0000000000000000
(1596299196.973648) can0 0FD#2370E819E1000000
(1596299196.975588) can0 080#0000030D3DC40505
(1596299196.976615) can0 07A#0100000000000000
(1596299196.979474) can0 0DF#0100000000000000
(1596299196.982865) can0 2A0#2C2F000000030D3D
(1596299196.983829) can0 07E#003B99200004E024
(1596299196.984781) can0 0B0#17000822E11E0C00
(1596299196.985723) can0 110#6429D02F00007E04
(1596299196.986715) can0 160#0000000008000000
(1596299196.988396) can0 180#3DC8000003830103
(1596299196.989889) can0 0A3#000000C551040040
(1596299196.993594) can0 06C#0008091800000080
(1596299196.998086) can0 07D#0020000000000000
(1596299196.999069) can0 245#0001400000800093
(1596299197.001291) can0 188#03830CC200000000
(1596299197.003072) can0 301#0400300000000000
(1596299197.004551) can0 201#0000000000000000
(1596299197.008165) can0 310#8C08000000920800
(1596299197.009803) can0 102#0000001C80030D3D
(1596299197.015859) can0 07A#0100000000000000
(1596299197.017913) can0 0DF#0100000000000000
(1596299197.018912) can0 4F0#0000000000008000
(1596299197.021608) can0 0F7#026801A880000300
(1596299197.022631) can0 214#0000000000000000
(1596299197.023613) can0 06C#0008091800000080
(1596299197.024577) can0 0FD#0370F819E1000000
(1596299197.025527) can0 080#0000030D3DC48505
(1596299197.026511) can0 2F0#0000100040000000
(1596299197.029801) can0 0A3#000000C551040040
(1596299197.033247) can0 07E#003B99200004E024
(1596299197.034493) can0 0B0#17000822E11E0C00
(1596299197.035411) can0 455#7004400092030D3D
(1596299197.036401) can0 160#0000000008000000
(1596299197.037352) can0 496#C0523C3F00000000
(1596299197.038383) can0 07D#0020000000000000
(1596299197.042947) can0 110#6429D02F00007E04
(1596299197.044764) can0 504#0502001104000000
(1596299197.048163) can0 180#3DC8000003830103
(1596299197.053378) can0 06C#0008091800000080
(1596299197.055864) can0 07A#0100000000000000
(1596299197.056871) can0 304#0000000000000000
(1596299197.057974) can0 0DF#0100000000000000
(1596299197.058964) can0 230#0000000000120000
(1596299197.059939) can0 440#3207500002648000
(1596299197.069766) can0 0A3#000000C551040040
(1596299197.070722) can0 102#0000001C80030D3D
(1596299197.071674) can0 0F7#026801A880000300
(1596299197.072688) can0 214#0000000000000000
(1596299197.073631) can0 0FD#D3709019E1000000
(1596299197.074590) can0 302#4111251C11FFFFFF
(1596299197.075547) can0 080#0000030D3DC40505
(1596299197.076524) can0 188#03830CC200000000
(1596299197.080106) can0 07D#0020000000000000
(1596299197.080495) can0 245#0001400000800093
(1596299197.083503) can0 06C#0008091800000080
(1596299197.084469) can0 07E#003B99200004E024
(1596299197.085420) can0 0B0#17000822E11E0C00
(1596299197.086412) can0 160#0000000008000000
(1596299197.094742) can0 201#0000000000000000
(1596299197.096066) can0 07A#0100000000000000
(1596299197.098289) can0 0DF#0100000000000000
(1596299197.103121) can0 2A0#2C2F000000030D3D
(1596299197.104063) can0 110#6429D02F00007E04
(1596299197.108318) can0 180#3DC8000003830103
(1596299197.109900) can0 0A3#000000C551040040
(1596299197.113660) can0 06C#0008091800000080
(1596299197.118126) can0 07D#0020000000000000
(1596299197.121805) can0 0F7#026801A880000300
(1596299197.122817) can0 214#0000000000000000
(1596299197.123752) can0 0FD#B370A019E1000000
(1596299197.124742) can0 301#0400300000000000
(1596299197.125700) can0 080#0000030D3DC40505
(1596299197.128603) can0 310#8C08000000920800
(1596299197.129912) can0 102#0000001C80030D3D
(1596299197.133657) can0 07E#003B99200004E024
(1596299197.134716) can0 0B0#16000822E11E0C00
(1596299197.136092) can0 07A#0100000000000000
(1596299197.137083) can0 160#0000000008000000
(1596299197.138099) can0 45A#0000000000000006
(1596299197.139078) can0 0DF#0100000000000000
(1596299197.141856) can0 2F0#0000100040000000
(1596299197.143275) can0 06C#0008091800000080
(1596299197.145094) can0 488#0000000000005800
(1596299197.149790) can0 0A3#000000C551040040
(1596299197.150808) can0 505#1102000105000000
(1596299197.151909) can0 188#03830CC200000000
(1596299197.153499) can0 490#04007936CC108000
(1596299197.158218) can0 230#0000000000120000
(1596299197.159217) can0 07D#0020000000000000
(1596299197.160200) can0 245#0001400000800093
(1596299197.161179) can0 440#3207500002648000
(1596299197.163165) can0 110#6429D02F00007E04
(1596299197.168422) can0 180#3DC8000003830103
(1596299197.169340) can0 330#501B030D3D030D3D
(1596299197.171799) can0 0F7#026801A880000300
(1596299197.172811) can0 214#0000000000000000
(1596299197.173761) can0 48A#A880000264C00080
(1596299197.174752) can0 06C#0008091800000080
(1596299197.175710) can0 080#0000030D3DC40505
(1596299197.176734) can0 07A#0100000000000000
(1596299197.181073) can0 0FD#8370B819E1000000
(1596299197.181383) can0 0DF#0100000000000000
(1596299197.182037) can0 32A#1F20300020030D3D
(1596299197.183083) can0 07E#003B99200004E024
(1596299197.184633) can0 0B0#17000822E11E0C00
(1596299197.185633) can0 201#0000000000000000
(1596299197.186624) can0 160#0000000008000000
(1596299197.189670) can0 0A3#000000C551040040
(1596299197.190625) can0 102#0000001C80030D3D
(1596299197.197961) can0 46B#05FFFFFFFFFFFF30
(1596299197.198958) can0 07D#0020000000000000
(1596299197.199958) can0 4F0#0000000000008000
(1596299197.203085) can0 400#0502020202010201
(1596299197.204075) can0 06C#0008091800000080
(1596299197.205002) can0 405#0166562111AC03EF
(1596299197.215955) can0 07A#0100000000000000
(1596299197.218289) can0 0DF#0100000000000000
(1596299197.221715) can0 0F7#026801A880000300
(1596299197.222726) can0 214#0000000000000000
(1596299197.223669) can0 0FD#6370C819E1000000
(1596299197.224612) can0 110#6429D02F00007E04
(1596299197.225570) can0 080#0000030D3DC40505
(1596299197.226521) can0 2A0#2C2F000000030D3D
(1596299197.227499) can0 188#03830CC200000000
(1596299197.228491) can0 180#3DC8000003830103
(1596299197.229681) can0 0A3#000000C551040040
(1596299197.233471) can0 06C#0008091800000080
(1596299197.234436) can0 07E#003B99200004E024
(1596299197.235388) can0 0B0#16000822E11E0C00
(1596299197.236378) can0 160#0000000008000000
(1596299197.237321) can0 335#590D00C240000000
(1596299197.238321) can0 07D#0020000000000000
(1596299197.239304) can0 245#0001400000800093
(1596299197.243106) can0 301#0400300000000000
(1596299197.248191) can0 4A0#01010000A569FDB0
(1596299197.249158) can0 310#8C08000000920800
(1596299197.250115) can0 102#0000001C80030D3D
(1596299197.253476) can0 302#4111251C11FFFFFF
(1596299197.255962) can0 07A#0100000000000000
(1596299197.257936) can0 0DF#0100000000000000
(1596299197.258928) can0 230#0000000000120000
(1596299197.259904) can0 440#3207500002648000
(1596299197.261759) can0 2F0#0000100040000000
(1596299197.263460) can0 06C#0008091800000080
(1596299197.264619) can0 511#4712000105000000
(1596299197.269637) can0 0A3#000000E551040040
(1596299197.271711) can0 0F7#026801A880000300
(1596299197.272723) can0 214#0000000000000000
(1596299197.273665) can0 0FD#3370E019E1000000
(1596299197.274623) can0 080#0000030D3DC40505
(1596299197.275622) can0 201#0000000000000000
(1596299197.276563) can0 4B0#84010100008030F1
(1596299197.280959) can0 4C0#0000000000030D3D
(1596299197.281488) can0 4BA#2000000000000000
(1596299197.281876) can0 07D#0020000000000000
(1596299197.283153) can0 07E#003B99200004E024
(1596299197.284095) can0 110#6429D02F00007E04
(1596299197.285045) can0 0B0#17000822E11E0C00
(1596299197.286053) can0 160#0000000008000000
(1596299197.288383) can0 180#3DC8000003830103
(1596299197.293537) can0 06C#0008091800000080
(1596299197.296075) can0 07A#0100000000000000
(1596299197.297082) can0 304#0000000000000000
(1596299197.298202) can0 0DF#0100000000000000
(1596299197.299192) can0 4D0#4000200000000000
(1596299197.302239) can0 188#03830CC200000000
(1596299197.309564) can0 0A3#000000C551040040
(1596299197.310522) can0 102#0000001C80030D3D
(1596299197.318063) can0 07D#0020000000000000
(1596299197.319040) can0 245#0001400000800093
(1596299197.321817) can0 0F7#026801A880000300
(1596299197.322830) can0 214#0000000000000000
(1596299197.323821) can0 06C#0008091800000080
(1596299197.324778) can0 080#0000030D3DC40505
(1596299197.325729) can0 0FD#1370F019E1000000
(1596299197.333416) can0 07E#003B99200004E024
(1596299197.334724) can0 0B0#17000822E11E0C00
(1596299197.335644) can0 455#7004400092030D3D
(1596299197.336660) can0 07A#0100000000000000
(1596299197.337651) can0 160#0000000008000000
(1596299197.338657) can0 0DF#0100000000000000
(1596299197.343105) can0 2A0#2C2F000000030D3D
(1596299197.344047) can0 110#6429D02F00007E04
(1596299197.348511) can0 180#3DC8000003830103
(1596299197.349557) can0 0A3#000000C551040040
(1596299197.353783) can0 06C#0008091800000080
(1596299197.358028) can0 230#0000000000120000
(1596299197.359026) can0 07D#0020000000000000
(1596299197.360001) can0 440#3207500002648000
(1596299197.363256) can0 301#0400300000000000
(1596299197.364796) can0 201#0000000000000000
(1596299197.368347) can0 310#8C08000000920800
(1596299197.369610) can0 102#0000001C80030D3D
(1596299197.371044) can0 547#0112000047000000
(1596299197.371990) can0 0F7#026801A880000300
(1596299197.373006) can0 214#0000000000000000
(1596299197.373948) can0 0FD#E3708819E1000000
(1596299197.374905) can0 080#0000030D3DC40505
(1596299197.376095) can0 07A#0100000000000000
(1596299197.377444) can0 188#03830CC200000000
(1596299197.381792) can0 0DF#0100000000000000
(1596299197.382102) can0 4F0#0000000000008000
(1596299197.382763) can0 2F0#0000100040000000
(1596299197.383184) can0 06C#0008091800000080
(1596299197.384130) can0 07E#003B99200004E024
(1596299197.385082) can0 0B0#17000822E11E0C00
(1596299197.386074) can0 160#0000000008000000
(1596299197.389414) can0 0A3#000000C551040040
(1596299197.393463) can0 330#501B030D3D030D3D
(1596299197.398355) can0 07D#0020000000000000
(1596299197.399337) can0 245#0001400000800093
(1596299197.400288) can0 32A#1F08300020030D3D
(1596299197.403072) can0 110#6E2902FD00007E02
(1596299197.408206) can0 180#3DC8000003830103
(1596299197.413464) can0 06C#0008091800000080
(1596299197.415971) can0 07A#0100000000000000
(1596299197.416978) can0 304#0000000000000000
(1596299197.417986) can0 0DF#0100000000000000
(1596299197.421727) can0 0F7#026801A880000300
(1596299197.422737) can0 214#0000000000000000
(1596299197.423682) can0 0FD#C3709819E1000000
(1596299197.424638) can0 080#0000030D3DC40505
(1596299197.429336) can0 0A3#000000C551040040
(1596299197.430293) can0 102#0000001C80030D3D
(1596299197.433590) can0 07E#003B99200004E024
(1596299197.434546) can0 302#4110251C11FFFFFF
(1596299197.435496) can0 0B0#17000822E11E0C00
(1596299197.436517) can0 160#0000000008000000
(1596299197.438008) can0 07D#0020000000000000
(1596299197.443305) can0 06C#0008091800000080
(1596299197.448134) can0 400#0602010002010101
(1596299197.449077) can0 405#0243410030030D3D
(1596299197.452510) can0 188#03830CC200000000
(1596299197.454689) can0 201#0000000000000000
(1596299197.455968) can0 07A#0100000000000000
(1596299197.458032) can0 0DF#0100000000000000
(1596299197.459021) can0 230#0000000000120000
(1596299197.459997) can0 440#3207500002648000
(1596299197.463054) can0 2A0#2C2F000000030D3D
(1596299197.464001) can0 110#642902FD00007E02
(1596299197.468184) can0 180#3DC8000003830103
(1596299197.469391) can0 0A3#000000C551040040
(1596299197.471713) can0 0F7#026801A880000300
(1596299197.472725) can0 214#0000000000000000
(1596299197.473716) can0 06C#0008091800000080
(1596299197.474674) can0 080#0000030D3DC40505
(1596299197.475626) can0 0FD#9370B019E1000000
(1596299197.476594) can0 501#0302004101000000
(1596299197.481619) can0 07D#0020000000000000
(1596299197.482147) can0 245#0001400000800093
(1596299197.483198) can0 07E#003B99200004E024
(1596299197.484190) can0 301#0400300000000000
(1596299197.485132) can0 0B0#16000822E11E4800
(1596299197.486119) can0 160#0000000008000000
(1596299197.488550) can0 310#8C08000000920800
(1596299197.489506) can0 102#0000001C80030D3D
(1596299197.496049) can0 07A#0100000000000000
(1596299197.497716) can0 45A#0000000000000006
(1596299197.498723) can0 0DF#0100000000000000
(1596299197.501877) can0 2F0#0000100040000000
(1596299197.503330) can0 06C#0008091800000080
(1596299197.504327) can0 488#0000000000005800
(1596299197.509335) can0 0A3#000000C551040040
(1596299197.518149) can0 07D#0020000000000000
(1596299197.521835) can0 0F7#026801A880000300
(1596299197.522845) can0 214#0000000000000000
(1596299197.523787) can0 0FD#7370C019E1000000
(1596299197.524736) can0 080#0000030D3DC48505
(1596299197.525696) can0 110#6E2902FD00007E03
(1596299197.527813) can0 188#03830CC200000000
(1596299197.528803) can0 180#3DC8000003830103
(1596299197.533773) can0 06C#0008091800000080
(1596299197.534736) can0 07E#003B99200004E024
(1596299197.535687) can0 0B0#17000822E11E0800
(1596299197.536704) can0 07A#0100000000000000
(1596299197.537694) can0 160#0000000008000000
(1596299197.538702) can0 0DF#0100000000000000
(1596299197.539708) can0 304#0000000000000000
(1596299197.540643) can0 335#590D00C21A000000
(1596299197.544791) can0 201#0000000000000000
(1596299197.549256) can0 0A3#000000E551040040
(1596299197.550214) can0 102#0000001C80030D3D
(1596299197.558030) can0 230#0000000000120000
(1596299197.559028) can0 07D#0020000000000000
(1596299197.560011) can0 245#0001400000800093
(1596299197.560989) can0 440#3207500002648000
(1596299197.561951) can0 46B#06FFFFFFFFFFFFB0
(1596299197.562950) can0 4F0#0000000000008000
(1596299197.563941) can0 06C#0008091800000080
(1596299197.571826) can0 0F7#026801A880000300
(1596299197.572836) can0 214#0000000000000000
(1596299197.573774) can0 0FD#4370D819E1000000
(1596299197.574730) can0 080#0000030D3DC40505
(1596299197.576089) can0 07A#0100000000000000
(1596299197.582161) can0 0DF#0100000000000000
(1596299197.582996) can0 2A0#2C2F000000030D3D
(1596299197.583961) can0 07E#003B99200004E024
(1596299197.584920) can0 0B0#17000822FD02CC00
(1596299197.585871) can0 110#642902FD00007E03
(1596299197.586864) can0 160#0000000008000000
(1596299197.588232) can0 180#3DC8000003830103
(1596299197.589196) can0 0A3#000000C551040040
(1596299197.591758) can0 503#0412000003000000
(1596299197.593538) can0 06C#0008091800000080
(1596299197.598017) can0 07D#0020000000000000
(1596299197.602850) can0 188#03830CC200000000
(1596299197.603843) can0 301#0400300000000000
(1596299197.604794) can0 490#04007936CC118000
(1596299197.608299) can0 310#8C08000000920800
(1596299197.609256) can0 102#0000001C80030D3D
(1596299197.613513) can0 302#4111251C11FFFFFF
(1596299197.615941) can0 07A#0100000000000000
(1596299197.617940) can0 0DF#0100000000000000
(1596299197.618860) can0 330#501B030D3D030D3D
(1596299197.621735) can0 0F7#026801A880000300
(1596299197.622747) can0 214#0000000000000000
(1596299197.623738) can0 06C#0008091800000080
(1596299197.624694) can0 080#0000030D3DC40505
(1596299197.625646) can0 0FD#2370E819E1000000
(1596299197.626636) can0 2F0#0000100040000000
(1596299197.627587) can0 32A#1F20300020030D3D
(1596299197.628530) can0 48A#A880008264C00080
(1596299197.629495) can0 0A3#000000C551040040
(1596299197.633504) can0 07E#003B99200004E024
(1596299197.634660) can0 0B0#17000822FD020C00
(1596299197.635659) can0 201#0000000000000000
(1596299197.636653) can0 160#0000000008000000
(1596299197.637570) can0 455#7004400092030D3D
(1596299197.638568) can0 07D#0020000000000000
(1596299197.639550) can0 245#0001400000800093
(1596299197.640500) can0 496#C0523C3F00000000
(1596299197.643165) can0 110#6E2902FD00007E04
(1596299197.648178) can0 180#3DC8000003830103
(1596299197.653514) can0 06C#0008091800000080
(1596299197.655945) can0 07A#0100000000000000
(1596299197.656951) can0 304#0000000000000000
(1596299197.657991) can0 0DF#0100000000000000
(1596299197.658980) can0 230#0000000000120000
(1596299197.659955) can0 440#3207500002648000
(1596299197.669080) can0 0A3#000000C551040040
(1596299197.670054) can0 102#0000001C80030D3D
(1596299197.671728) can0 0F7#026801A880000300
(1596299197.672739) can0 214#0000000000000000
(1596299197.673722) can0 0FD#F3708019E1000000
(1596299197.674679) can0 080#0000030D3DC40505
(1596299197.678063) can0 188#03830CC200000000
(1596299197.682018) can0 07D#0020000000000000
(1596299197.683278) can0 06C#0008091800000080
(1596299197.684245) can0 07E#003B99200004E024
(1596299197.685211) can0 0B0#17000822FD020C00
(1596299197.686202) can0 160#0000000008000000
(1596299197.696043) can0 07A#0100000000000000
(1596299197.698249) can0 0DF#0100000000000000
(1596299197.703162) can0 2A0#2C2F000000030D3D
(1596299197.704110) can0 110#642902FD00007E04
(1596299197.705077) can0 400#0701010201020101
(1596299197.706076) can0 405#0000000000000000
(1596299197.707066) can0 504#0502001104000000
(1596299197.708401) can0 180#3DC8000003830103
(1596299197.709367) can0 0A3#000000C551040040
(1596299197.713887) can0 06C#0008091800000080
(1596299197.718093) can0 07D#0020000000000000
(1596299197.719064) can0 245#0001400000800093
(1596299197.721855) can0 0F7#026801A880000300
(1596299197.722881) can0 214#0000000000000000
(1596299197.723876) can0 080#0000030D3DC40505
(1596299197.724738) can0 0FD#D3709019E1000000
(1596299197.725736) can0 201#0000000000000000
(1596299197.726732) can0 301#0400300000000000
(1596299197.728435) can0 310#8C08000000920800
(1596299197.729388) can0 102#0000001C80030D3D
(1596299197.733638) can0 07E#003B99200004E024
(1596299197.734804) can0 0B0#17000822FD020C00
(1596299197.736084) can0 07A#0100000000000000
(1596299197.737062) can0 160#0000000008000000
(1596299197.738116) can0 0DF#0100000000000000
(1596299197.739116) can0 4F0#0000000000008000
(1596299197.741909) can0 2F0#0000300040000000
(1596299197.743407) can0 06C#0008091800000080
(1596299197.749026) can0 0A3#000000C551040040
(1596299197.754204) can0 188#03830CC200000000
(1596299197.758281) can0 230#0000000000120000
(1596299197.759256) can0 07D#0020000000000000
(1596299197.760241) can0 440#3207500002648000
(1596299197.763223) can0 110#642902FD00007E04
(1596299197.768219) can0 180#3DC8000003830103
(1596299197.771821) can0 0F7#026801A880000300
(1596299197.772833) can0 214#0000000000000000
(1596299197.773825) can0 06C#0008091800000080
(1596299197.774782) can0 080#0000030D3DC40505
(1596299197.775738) can0 0FD#A370A819E1000000
(1596299197.776753) can0 07A#0100000000000000
(1596299197.777748) can0 304#0000000000000000
(1596299197.791621) can0 0DF#0100000000000000
(1596299197.792056) can0 102#0000001C80030D3D
(1596299197.792368) can0 07E#003B99200004E024
(1596299197.793521) can0 302#4111261C11FFFFFF
(1596299197.797998) can0 07D#0020000000000000
(1596299197.798981) can0 245#0001400000800093
(1596299197.803455) can0 06C#0008091800000080
(1596299197.814691) can0 201#0000000000000000
(1596299197.815937) can0 07A#0100000000000000
(1596299197.818031) can0 0DF#0100000000000000
(1596299197.819013) can0 505#1102000105000000
(1596299197.821749) can0 0F7#026801A880000300
(1596299197.822762) can0 214#0000000000000000
(1596299197.823719) can0 080#0000030D3DC40505
(1596299197.824677) can0 0FD#8370B819E1000000
(1596299197.825628) can0 110#642902FD00007E04
(1596299197.826589) can0 2A0#2C2F000000030D3D
(1596299197.828339) can0 180#3DC8000003830103
(1596299197.829305) can0 0A3#000000C551040040
(1596299197.830283) can0 188#03830CC200000000
(1596299197.833547) can0 06C#00080E1800000080
(1596299197.834513) can0 07E#003B99200004E024
(1596299197.835479) can0 0B0#17000822FD020C00
(1596299197.836471) can0 160#0000000008000000
(1596299197.837431) can0 335#590D00C203000000
(1596299197.838421) can0 07D#0020000000000000
(1596299197.843309) can0 301#0400300000000000
(1596299197.844227) can0 330#501B030D3D030D3D
(1596299197.848242) can0 310#8C08000000920800
(1596299197.849200) can0 102#0000001C80030D3D
(1596299197.850151) can0 32A#1F28300020030D3D
(1596299197.855935) can0 07A#0100000000000000
(1596299197.857957) can0 0DF#0100000000000000
(1596299197.858947) can0 230#0000000000120000
(1596299197.859921) can0 440#3207500002648000
(1596299197.860912) can0 45A#0000000000000006
(1596299197.863750) can0 2F0#0000100040000000
(1596299197.864060) can0 488#0000000000005800
(1596299197.864481) can0 06C#0008091800000080
(1596299197.868815) can0 0A3#000000E551040040
(1596299197.871736) can0 0F7#026801A880000300
(1596299197.872749) can0 214#0000000000000000
(1596299197.873706) can0 080#0000030D3DC40505
(1596299197.874649) can0 0FD#5370D019E1000000
(1596299197.878225) can0 07D#0020000000000000
(1596299197.882192) can0 245#0001400000800093
(1596299197.883200) can0 07E#003B99200004E024
(1596299197.884151) can0 110#642902FD00007E04
(1596299197.885117) can0 0B0#17000822FD020C00
(1596299197.886108) can0 160#0000000008000000
(1596299197.888278) can0 180#3DC8000003830103
(1596299197.893885) can0 06C#0008091800000080
(1596299197.896042) can0 07A#0100000000000000
(1596299197.897050) can0 304#0000000000000000
(1596299197.898161) can0 0DF#0100000000000000
(1596299197.903694) can0 188#03830CC200000000
(1596299197.904845) can0 201#0000000000000000
(1596299197.908743) can0 0A3#000000C551040040
(1596299197.909700) can0 102#0000001C80030D3D
(1596299197.918043) can0 46B#07FFFFFFFFFFFFB0
(1596299197.919040) can0 07D#0020000000000000
(1596299197.920040) can0 4F0#0000000000008000
(1596299197.921853) can0 0F7#026801A880000300
(1596299197.922866) can0 214#0000000000000000
(1596299197.923857) can0 06C#0008091800000080
(1596299197.924813) can0 080#0000030D3DC40505
(1596299197.925756) can0 0FD#3370E019E1000000
(1596299197.926707) can0 511#4712000105000000
(1596299197.933642) can0 07E#003B99200004E024
(1596299197.934774) can0 0B0#17000822FD020C00
(1596299197.935721) can0 455#7004400092030D3D
(1596299197.936709) can0 07A#0100000000000000
(1596299197.937700) can0 160#0000000008000000
(1596299197.938708) can0 0DF#0100000000000000
(1596299197.943196) can0 2A0#2C2F000000030D3D
(1596299197.944145) can0 110#642902FD00007E04
(1596299197.948193) can0 400#0802551606020101
(1596299197.949159) can0 0A3#000000C551040040
(1596299197.950149) can0 180#3DC8000003830103
(1596299197.951149) can0 405#0000000000000000
(1596299197.953659) can0 06C#0008091800000080
(1596299197.958078) can0 230#0000000000120000
(1596299197.959075) can0 07D#0020000000000000
(1596299197.960058) can0 245#0001400000800093
(1596299197.961037) can0 440#3207500002648000
(1596299197.963344) can0 301#0400300000000000
(1596299197.968319) can0 4A0#01010000A569FDB0
(1596299197.969277) can0 102#0000001C80030D3D
(1596299197.970244) can0 310#8C08000000920800
(1596299197.971854) can0 0F7#026801A880000300
(1596299197.972867) can0 214#0000000000000000
(1596299197.973837) can0 080#0000030D3DC40505
(1596299197.974785) can0 0FD#0370F819E1000000
(1596299197.975746) can0 302#4111261C11FFFFFF
(1596299197.976761) can0 07A#0100000000000000
(1596299197.978165) can0 0DF#0100000000000000
(1596299197.982606) can0 188#03830CC200000000
(1596299197.982916) can0 2F0#0000100040000000
(1596299197.983338) can0 06C#0008091800000080
(1596299197.984365) can0 07E#003B99200004E024
(1596299197.985333) can0 0B0#17000822FD020C00
(1596299197.986324) can0 160#0000000008000000
(1596299197.988475) can0 0A3#000000C551040040
(1596299197.993404) can0 4B0#04010100008030F1
(1596299197.994775) can0 201#0000000000000000
(1596299197.995742) can0 4C0#0000000000030D3D
(1596299197.998109) can0 4BA#2000000000000000
(1596299197.999108) can0 07D#0020000000000000
(1596299198.003125) can0 110#642902FD00007E04
(1596299198.008138) can0 180#3DC8000003830103
(1596299198.013563) can0 06C#0008091800000080
(1596299198.015928) can0 07A#0100000000000000
(1596299198.016935) can0 304#0000000000000000
(1596299198.018014) can0 0DF#0100000000000000
(1596299198.019005) can0 4D0#4000200000000000
(1596299198.021757) can0 0F7#026801A880000300
(1596299198.022771) can0 214#0000000000000000
(1596299198.023721) can0 080#0000030D3DC48505
(1596299198.024664) can0 0FD#E3708819E1000000
(1596299198.028546) can0 0A3#000000C551040040
(1596299198.029504) can0 102#0000001C80030D3D
(1596299198.030921) can0 547#0112000047000000
(1596299198.033597) can0 07E#003B99200004E024
(1596299198.034699) can0 0B0#17000822FD020C00
(1596299198.035914) can0 160#0000000008000000
(1596299198.038060) can0 07D#0020000000000000
(1596299198.039043) can0 245#0001400000800093
(1596299198.043196) can0 06C#0008091800000080
(1596299198.053420) can0 490#04007936CC0F8000
(1596299198.054392) can0 188#03830CC200000000
(1596299198.055922) can0 07A#0100000000000000
(1596299198.058072) can0 0DF#0100000000000000
(1596299198.059063) can0 230#0000000000120000
(1596299198.060038) can0 440#3207500002648000
(1596299198.063097) can0 2A0#2C2F000000030D3D
(1596299198.064044) can0 110#642902FD00007E04
(1596299198.068244) can0 180#3DC8000003830103
(1596299198.069210) can0 0A3#000000C551040040
(1596299198.070129) can0 330#501B030D3D030D3D
(1596299198.071745) can0 0F7#026801A880000300
(1596299198.072759) can0 214#0000000000000000
(1596299198.073750) can0 06C#0008091800000080
(1596299198.074707) can0 080#0000030D3DC40505
(1596299198.075642) can0 0FD#B370A019E1000000
(1596299198.076592) can0 32A#1F20300020030D3D
(1596299198.077546) can0 48A#A880000264C00080
(1596299198.078551) can0 07D#0020000000000000
(1596299198.083313) can0 07E#003B99200004E024
(1596299198.084302) can0 301#0400300000000000
(1596299198.085277) can0 0B0#16000822FD020C00
(1596299198.086267) can0 160#0000000008000000
(1596299198.087266) can0 201#0000000000000000
(1596299198.088493) can0 310#8C08000000920800
(1596299198.089448) can0 102#0000001C80030D3D
(1596299198.096017) can0 07A#0100000000000000
(1596299198.098183) can0 0DF#0100000000000000
(1596299198.099181) can0 4F0#0000000000008000
(1596299198.101911) can0 2F0#0000100040000000
(1596299198.103378) can0 06C#0008091800000080
(1596299198.108502) can0 0A3#000000C551040040
(1596299198.118346) can0 07D#0020000000000000
(1596299198.119322) can0 245#0001400000800093
(1596299198.121859) can0 0F7#026801A880000300
(1596299198.122822) can0 080#0000030D3DC40505
(1596299198.123757) can0 0FD#9370B019E1000000
(1596299198.124706) can0 110#642902FD00007E04
(1596299198.125721) can0 214#0000000000000000
(1596299198.128330) can0 180#3DC8000003830103
(1596299198.129306) can0 188#03830CC200000000
(1596299198.133635) can0 06C#0008091800000080
(1596299198.134598) can0 07E#003B99200004E024
(1596299198.135573) can0 0B0#16000822FD020C00
(1596299198.136588) can0 07A#0100000000000000
(1596299198.137579) can0 160#0000000008000000
(1596299198.138581) can0 0DF#0100000000000000
(1596299198.139594) can0 304#0000000000000000
(1596299198.140528) can0 335#590D00C21A000000
(1596299198.141515) can0 501#0302004101000000
(1596299198.148429) can0 0A3#000000E551040040
(1596299198.149387) can0 102#0000001C80030D3D
(1596299198.153653) can0 302#4110261C11FFFFFF
(1596299198.158066) can0 230#0000000000120000
(1596299198.159065) can0 07D#0020000000000000
(1596299198.160040) can0 440#3207500002648000
(1596299198.163612) can0 06C#0008091800000080
(1596299198.171869) can0 0F7#026801A880000300
(1596299198.172811) can0 080#0000030D3DC40505
(1596299198.173754) can0 0FD#6370C819E1000000
(1596299198.174770) can0 214#0000000000000000
(1596299198.175768) can0 201#0000000000000000
(1596299198.176783) can0 07A#0100000000000000
(1596299198.178271) can0 0DF#0100000000000000
(1596299198.183207) can0 2A0#2C2F000000030D3D
(1596299198.184155) can0 07E#003B99200004E024
(1596299198.185129) can0 0B0#16000822FD020C00
(1596299198.186079) can0 110#642902FD00007E04
(1596299198.187069) can0 160#0000000008000000
(1596299198.188318) can0 180#3DC8000003830103
(1596299198.189284) can0 0A3#000000C551040040
(1596299198.193709) can0 06C#0008091800000080
(1596299198.198147) can0 07D#0020000000000000
(1596299198.199130) can0 245#0001400000800093
(1596299198.203252) can0 400#0903020302010324
(1596299198.204238) can0 301#0400300000000000
(1596299198.205216) can0 188#03830CC200000000
(1596299198.206151) can0 405#0166562111B6FC10
(1596299198.208372) can0 102#0000001C80030D3D
(1596299198.209339) can0 310#8C08000000920800
(1596299198.216014) can0 07A#0100000000000000
(1596299198.218049) can0 0DF#0100000000000000
(1596299198.219467) can0 45A#0000000000000006
(1596299198.221870) can0 0F7#026801A880000300
(1596299198.222824) can0 080#0000030D3DC40505
(1596299198.223814) can0 06C#0008091800000080
(1596299198.224748) can0 0FD#4370D819E1000000
(1596299198.225763) can0 214#0000000000000000
(1596299198.226755) can0 2F0#0000100040000000
(1596299198.227752) can0 488#0000000000005800
(1596299198.228718) can0 0A3#000000C551040040
(1596299198.233599) can0 07E#003B99200004E024
(1596299198.234826) can0 0B0#16000822FD020C00
(1596299198.235744) can0 455#7004400092030D3D
(1596299198.236735) can0 160#0000000008000000
(1596299198.237685) can0 496#C0523C3F00000000
(1596299198.238686) can0 07D#0020000000000000
(1596299198.243277) can0 110#642902FD00007E04
(1596299198.248374) can0 180#3DC8000003830103
(1596299198.251886) can0 503#0412000003000000
(1596299198.253866) can0 06C#0008091800000080
(1596299198.256027) can0 07A#0100000000000000
(1596299198.257033) can0 304#0000000000000000
(1596299198.258136) can0 0DF#0100000000000000
(1596299198.259126) can0 230#0000000000120000
(1596299198.260101) can0 440#3207500002648000
(1596299198.264852) can0 201#0000000000000000
(1596299198.268362) can0 0A3#000000C551040040
(1596299198.269320) can0 102#0000001C80030D3D
(1596299198.271885) can0 0F7#026801A880000300
(1596299198.272828) can0 080#0000030D3DC40505
(1596299198.273778) can0 0FD#1370F019E1000000
(1596299198.274793) can0 214#0000000000000000
(1596299198.278136) can0 46B#08FFFFFFFFFFFFB0
(1596299198.279134) can0 07D#0020000000000000
(1596299198.280111) can0 188#03830CC200000000
(1596299198.281097) can0 245#0001400000800093
(1596299198.282092) can0 4F0#0000000000008000
(1596299198.287040) can0 06C#0008091800000080
(1596299198.287468) can0 160#0000000008000000
(1596299198.287780) can0 07E#003B99200004E024
(1596299198.293519) can0 330#501B030D3D030D3D
(1596299198.295922) can0 07A#0100000000000000
(1596299198.298313) can0 0DF#0100000000000000
(1596299198.299264) can0 32A#1F08300020030D3D
(1596299198.303105) can0 2A0#2C2F000000030D3D
(1596299198.304053) can0 110#642902FD00007E04
(1596299198.308159) can0 180#3DC8000003830103
(1596299198.309123) can0 0A3#000000C551040040
(1596299198.313604) can0 06C#00080E1800000080
(1596299198.318026) can0 07D#0020000000000000
(1596299198.321772) can0 0F7#026801A880000300
(1596299198.322725) can0 080#0000030D3DC40505
(1596299198.323683) can0 0FD#F3708019E1000000
(1596299198.324698) can0 214#0000000000000000
(1596299198.325691) can0 301#0400300000000000
(1596299198.328104) can0 102#0000001C80030D3D
(1596299198.329069) can0 310#8C08000000920800
(1596299198.333432) can0 07E#003B99200004E024
(1596299198.334379) can0 302#4111261C11FFFFFF
(1596299198.335353) can0 0B0#16000822FD020C00
(1596299198.336367) can0 07A#0100000000000000
(1596299198.337357) can0 160#0000000008000000
(1596299198.338365) can0 0DF#0100000000000000
(1596299198.341825) can0 2F0#0000100040000000
(1596299198.343485) can0 06C#0008091800000080
(1596299198.348080) can0 0A3#000000C551040040
(1596299198.354679) can0 188#03830CC200000000
(1596299198.355674) can0 201#0000000000000000
(1596299198.358050) can0 230#0000000000120000
(1596299198.359049) can0 07D#0020000000000000
(1596299198.360032) can0 245#0001400000800093
(1596299198.361011) can0 440#3207500002648000
(1596299198.363067) can0 504#0502001104000000
(1596299198.364018) can0 110#642902FD00007E04
(1596299198.368178) can0 180#3DC8000003830103
(1596299198.371762) can0 0F7#026801A880000300
(1596299198.372715) can0 080#0000030D3DC40505
(1596299198.373707) can0 06C#0008091800000080
(1596299198.374650) can0 0FD#C3709819E1000000
(1596299198.375665) can0 214#0000000000000000
(1596299198.376680) can0 07A#0100000000000000
(1596299198.377688) can0 304#0000000000000000
(1596299198.378694) can0 0DF#0100000000000000
(1596299198.383186) can0 07E#003B99200004E024
(1596299198.384741) can0 0B0#16000822FD020C00
(1596299198.385924) can0 160#0000000008000000
(1596299198.388016) can0 0A3#000000C551040040
(1596299198.388968) can0 102#0000001C80030D3D
(1596299198.398023) can0 07D#0020000000000000
(1596299198.403247) can0 06C#0008091800000080
(1596299198.415902) can0 07A#0100000000000000
(1596299198.418067) can0 0DF#0100000000000000
(1596299198.421788) can0 0F7#026801A880000300
(1596299198.422751) can0 080#0000030D3DC40505
(1596299198.423686) can0 0FD#A370A819E1000000
(1596299198.424634) can0 110#642902FD00007E04
(1596299198.425646) can0 214#0000000000000000
(1596299198.426597) can0 2A0#2C2F000000030D3D
(1596299198.428043) can0 0A3#000000C551040040
(1596299198.429033) can0 180#3DC8000003830103
(1596299198.430010) can0 188#03830CC200000000
(1596299198.433669) can0 06C#0008091800000080
(1596299198.434632) can0 07E#003B99200004E024
(1596299198.435606) can0 0B0#16000822FD020C00
(1596299198.436597) can0 160#0000000008000000
(1596299198.437540) can0 335#590D00C240000000
(1596299198.438539) can0 07D#0020000000000000
(1596299198.439519) can0 245#0001400000800093
(1596299198.443230) can0 301#0400300000000000
(1596299198.444777) can0 201#0000000000000000
(1596299198.447899) can0 102#0000001C80030D3D
(1596299198.448866) can0 310#8C08000000920800
(1596299198.449833) can0 400#0A01010200001234
(1596299198.450780) can0 405#0243410030030D3D
(1596299198.455918) can0 07A#0100000000000000
(1596299198.457974) can0 0DF#0100000000000000
(1596299198.458965) can0 230#0000000000120000
(1596299198.459940) can0 440#3207500002648000
(1596299198.460941) can0 4F0#0000000000008000
(1596299198.461929) can0 2F0#0000100040000000
(1596299198.463313) can0 06C#0008091800000080
(1596299198.466848) can0 505#1102000105000000
(1596299198.468020) can0 0A3#000000E551040040
(1596299198.471773) can0 0F7#026801A880000300
(1596299198.472729) can0 080#0000030D3DC40505
(1596299198.473672) can0 0FD#7370C019E1000000
(1596299198.474688) can0 214#0000000000000000
(1596299198.478431) can0 07D#0020000000000000
(1596299198.483135) can0 07E#003B99200004E024
(1596299198.487107) can0 110#642902FD00007E04
(1596299198.487495) can0 0B0#16000822FD020C00
(1596299198.488381) can0 180#3DC8000003830103
(1596299198.493617) can0 06C#00080E1800000080
(1596299198.496018) can0 07A#0100000000000000
(1596299198.497027) can0 304#0000000000000000
(1596299198.498216) can0 0DF#0100000000000000
(1596299198.503281) can0 490#04007936CC108000
(1596299198.505146) can0 188#03830CC200000000
(1596299198.507934) can0 0A3#000000C551040040
(1596299198.508891) can0 102#0000001C80030D3D
(1596299198.513751) can0 302#4111261C11FFFFFF
(1596299198.518090) can0 07D#0020000000000000
(1596299198.519073) can0 245#0001400000800093
(1596299198.519992) can0 330#501B030D3D030D3D
(1596299198.521541) can0 080#0000030D3DC48505
(1596299198.522488) can0 0F7#026801A880000300
(1596299198.523506) can0 214#0000000000000000
(1596299198.524497) can0 06C#00080E1800000080
(1596299198.525440) can0 0FD#5370D019E1000000
(1596299198.526391) can0 32A#1F28300020030D3D
(1596299198.527334) can0 48A#A880008264C00080
(1596299198.533592) can0 07E#003B99200004E024
(1596299198.534834) can0 0B0#16000822FD020C00
(1596299198.535832) can0 201#0000000000000000
(1596299198.536846) can0 07A#0100000000000000
(1596299198.537837) can0 160#0000000008000000
(1596299198.538846) can0 0DF#0100000000000000
(1596299198.539763) can0 455#7004400092030D3D
(1596299198.543233) can0 2A0#2C2F000000030D3D
(1596299198.544179) can0 110#642902FD00007E04
(1596299198.547901) can0 0A3#000000C551040040
(1596299198.548891) can0 180#3DC8000003830103
(1596299198.553692) can0 06C#0008091800000080
(1596299198.558067) can0 230#0000000000120000
(1596299198.559064) can0 07D#0020000000000000
(1596299198.560040) can0 440#3207500002648000
(1596299198.563372) can0 301#0400300000000000
(1596299198.567930) can0 102#0000001C80030D3D
(1596299198.568895) can0 310#8C08000000920800
(1596299198.571593) can0 080#0000030D3DC40505
(1596299198.572541) can0 0F7#026801A880000300
(1596299198.573559) can0 214#0000000000000000
(1596299198.574508) can0 0FD#2370E819E1000000
(1596299198.575459) can0 511#4712000105000000
(1596299198.576473) can0 07A#0100000000000000
(1596299198.578202) can0 0DF#0100000000000000
(1596299198.580341) can0 188#03830CC200000000
(1596299198.581328) can0 45A#0000000000000006
(1596299198.582315) can0 2F0#0000100040000000
(1596299198.583321) can0 488#0000000000005800
(1596299198.587640) can0 06C#0008091800000080
(1596299198.587951) can0 07E#003B99200004E024
(1596299198.588605) can0 0A3#000000C551040040
(1596299198.598210) can0 07D#0020000000000000
(1596299198.599191) can0 245#0001400000800093
(1596299198.603151) can0 110#642902FD00007E04
(1596299198.608270) can0 180#3DC8000003830103
(1596299198.613695) can0 06C#00080E1800000080
(1596299198.615907) can0 07A#0100000000000000
(1596299198.616914) can0 304#0000000000000000
(1596299198.618025) can0 0DF#0100000000000000
(1596299198.621314) can0 080#0000030D3DC40505
(1596299198.622263) can0 0F7#026801A880000300
(1596299198.623223) can0 0FD#0370F819E1000000
(1596299198.624238) can0 214#0000000000000000
(1596299198.625236) can0 201#0000000000000000
(1596299198.627696) can0 0A3#000000C551040040
(1596299198.628653) can0 102#0000001C80030D3D
(1596299198.633414) can0 07E#003B99200004E024
(1596299198.634761) can0 0B0#16000822FD020C00
(1596299198.635880) can0 160#0000000008000000
(1596299198.638016) can0 46B#08FFFFFFFFFFFF30
(1596299198.639014) can0 07D#0020000000000000
(1596299198.640014) can0 4F0#0000000000008000
(1596299198.643218) can0 06C#0008091800000080
(1596299198.655411) can0 188#03830CC200000000
(1596299198.656424) can0 07A#0100000000000000
(1596299198.658250) can0 0DF#0100000000000000
(1596299198.659240) can0 230#0000000000120000
(1596299198.660215) can0 440#3207500002648000
(1596299198.663121) can0 2A0#2C2F000000030D3D
(1596299198.664069) can0 110#642902FD00007E04
(1596299198.667736) can0 0A3#000000C551040040
(1596299198.668726) can0 180#3DC8000003830103
(1596299198.671328) can0 080#0000030D3DC40505
(1596299198.672276) can0 0F7#026801A880000300
(1596299198.673292) can0 214#0000000000000000
(1596299198.674284) can0 06C#0008091800000080
(1596299198.675227) can0 0FD#D3709019E1000000
(1596299198.678107) can0 07D#0020000000000000
(1596299198.679089) can0 245#0001400000800093
(1596299198.680914) can0 547#0112000047000000
(1596299198.683165) can0 07E#003B99200004E024
(1596299198.687241) can0 301#0400300000000000
(1596299198.687628) can0 0B0#16000822FD020C00
(1596299198.688445) can0 102#0000001C80030D3D
(1596299198.688970) can0 310#8C08000000920800
(1596299198.689667) can0 4A0#01010000A569FDAF
(1596299198.693525) can0 302#4110261C11FFFFFF
(1596299198.695999) can0 07A#0100000000000000
(1596299198.698126) can0 0DF#0100000000000000
(1596299198.701935) can0 2F0#0000300040000000
(1596299198.703594) can0 400#0B00000001060100
(1596299198.704584) can0 06C#0008091800000080
(1596299198.705552) can0 405#05000000000008CA
(1596299198.707703) can0 0A3#000000C551040040
(1596299198.713567) can0 4B0#84010100008030F1
(1596299198.714923) can0 201#0000000000000000
(1596299198.715889) can0 4C0#0000000000030D3D
(1596299198.718185) can0 4BA#2000000000000000
(1596299198.719185) can0 07D#0020000000000000
(1596299198.721214) can0 080#0000030D3DC40505
(1596299198.722160) can0 0F7#026801A880000300
(1596299198.723175) can0 214#0000000000000000
(1596299198.724112) can0 0FD#B370A019E1000000
(1596299198.725064) can0 110#642902FD00007E04
(1596299198.728359) can0 180#3DC8000003830103
(1596299198.730708) can0 188#03830CC200000000
(1596299198.733648) can0 06C#0008091800000080
(1596299198.734615) can0 07E#003B99200004E024
(1596299198.735589) can0 0B0#16000822FD020C00
(1596299198.736605) can0 07A#0100000000000000
(1596299198.737596) can0 160#0000000008000000
(1596299198.738602) can0 0DF#0100000000000000
(1596299198.739609) can0 304#0000000000000000
(1596299198.740543) can0 335#590D00C21A000000
(1596299198.741540) can0 4D0#4000200000000000
(1596299198.743350) can0 330#501B030D3D030D3D
(1596299198.747632) can0 0A3#000000E551040040
(1596299198.748589) can0 102#0000001C80030D3D
(1596299198.749539) can0 32A#1F20300020030D3D
(1596299198.758060) can0 230#0000000000120000
(1596299198.759058) can0 07D#0020000000000000
(1596299198.760041) can0 245#0001400000800093
(1596299198.761020) can0 440#3207500002648000
(1596299198.763392) can0 06C#0008091800000080
(1596299198.771151) can0 080#0000030D3DC40505
(1596299198.772097) can0 0F7#026801A880000300
(1596299198.773111) can0 214#0000000000000000
(1596299198.774067) can0 0FD#8370B819E1000000
(1596299198.776033) can0 07A#0100000000000000
(1596299198.778265) can0 0DF#0100000000000000
(1596299198.783191) can0 2A0#2C2F000000030D3D
(1596299198.787654) can0 07E#003B99200004E024
(1596299198.787964) can0 0B0#16000822FD020C00
(1596299198.788922) can0 180#3DC8000003830103
(1596299198.789904) can0 501#0302004101000000
(1596299198.793733) can0 06C#0008091800000080
(1596299198.798151) can0 07D#0020000000000000
(1596299198.803224) can0 301#0400300000000000
(1596299198.804779) can0 201#0000000000000000
(1596299198.805805) can0 188#03830CC200000000
(1596299198.807468) can0 102#0000001C80030D3D
(1596299198.808499) can0 310#8C08000000920800
(1596299198.815883) can0 07A#0100000000000000
(1596299198.818000) can0 0DF#0100000000000000
(1596299198.818999) can0 4F0#0000000000008000
(1596299198.820837) can0 080#0000030D3DC40505
(1596299198.821800) can0 0F7#026801A880000300
(1596299198.822815) can0 214#0000000000000000
(1596299198.823806) can0 06C#0008091800000080
(1596299198.824750) can0 0FD#6370C819E1000000
(1596299198.825740) can0 2F0#0000100040000000
(1596299198.827481) can0 0A3#000000C551040040
(1596299198.833594) can0 07E#003B99200004E024
(1596299198.834756) can0 0B0#16000822FD020C00
(1596299198.835675) can0 455#7004400092030D3D
(1596299198.836665) can0 160#0000000008000000
(1596299198.837614) can0 496#C0523C3F00000000
(1596299198.838613) can0 07D#0020000000000000
(1596299198.839596) can0 245#0001400000800093
(1596299198.843179) can0 110#642902FD00007E04
(1596299198.848221) can0 180#3DC8000003830103
(1596299198.853590) can0 06C#00080E1800000080
(1596299198.855889) can0 07A#0100000000000000
(1596299198.856896) can0 304#0000000000000000
(1596299198.858073) can0 0DF#0100000000000000
(1596299198.859063) can0 230#0000000000120000
(1596299198.860037) can0 440#3207500002648000
(1596299198.867294) can0 0A3#000000C551040040
(1596299198.868248) can0 102#0000001C80030D3D
(1596299198.871098) can0 080#0000030D3DC40505
(1596299198.872046) can0 0F7#026801A880000300
(1596299198.873061) can0 214#0000000000000000
(1596299198.874004) can0 0FD#3370E019E1000000
(1596299198.874973) can0 302#4111271C11FFFFFF
(1596299198.878107) can0 07D#0020000000000000
(1596299198.880956) can0 188#03830CC200000000
(1596299198.883488) can0 06C#00080E1800000080
(1596299198.887495) can0 07E#003B99200004E024
(1596299198.887884) can0 0B0#16000822FD020C00
(1596299198.888703) can0 160#0000000008000000
(1596299198.894889) can0 201#0000000000000000
(1596299198.895998) can0 07A#0100000000000000
(1596299198.898293) can0 0DF#0100000000000000
(1596299198.901951) can0 503#0412000003000000
(1596299198.903275) can0 2A0#2C2F000000030D3D
(1596299198.904227) can0 110#642902FD00007E04
(1596299198.907406) can0 0A3#000000C551040040
(1596299198.908398) can0 180#3DC8000003830103
(1596299198.913761) can0 06C#00080E1800000080
(1596299198.918164) can0 07D#0020000000000000
(1596299198.919147) can0 245#0001400000800093
(1596299198.920728) can0 080#0000030D3DC40505
(1596299198.921917) can0 0F7#026801A880000300
(1596299198.922931) can0 214#0000000000000000
(1596299198.923883) can0 0FD#1370F019E1000000
(1596299198.924876) can0 301#0400300000000000
(1596299198.927416) can0 102#0000001C80030D3D
(1596299198.928654) can0 310#8C08000000920800
(1596299198.933649) can0 07E#003B99200004E024
(1596299198.934867) can0 0B0#16000822FD020C00
(1596299198.935994) can0 07A#0100000000000000
(1596299198.936985) can0 160#0000000008000000
(1596299198.938192) can0 0DF#0100000000000000
(1596299198.940721) can0 488#0000000000005800
(1596299198.941707) can0 45A#0000000000000006
(1596299198.942698) can0 2F0#0000100040000000
(1596299198.943689) can0 06C#0008091800000080
(1596299198.947363) can0 0A3#000000C551040040
(1596299198.948355) can0 400#0C00000001000201
(1596299198.949281) can0 405#1146413237423738
(1596299198.953564) can0 490#04007936CC118000
(1596299198.956244) can0 188#03830CC200000000
(1596299198.958197) can0 230#0000000000120000
(1596299198.959195) can0 07D#0020000000000000
(1596299198.960170) can0 440#3207500002648000
(1596299198.963266) can0 110#642902FD00007E04
(1596299198.968448) can0 180#3DC8000003830103
(1596299198.969368) can0 330#501B030D3D030D3D
(1596299198.970966) can0 080#0000030D3DC40505
(1596299198.971912) can0 0F7#026801A880000300
(1596299198.972928) can0 214#0000000000000000
(1596299198.973918) can0 06C#0008091800000080
(1596299198.974858) can0 0FD#E3708819E1000000
(1596299198.975811) can0 32A#1F28300020030D3D
(1596299198.976826) can0 07A#0100000000000000
(1596299198.977832) can0 304#0000000000000000
(1596299198.978838) can0 0DF#0100000000000000
(1596299198.979789) can0 48A#A880000264C00080
(1596299198.983368) can0 07E#003B99200004E024
(1596299198.987863) can0 0B0#16000822FD020C00
(1596299198.988174) can0 201#0000000000000000
(1596299198.988830) can0 102#0000001C80030D3D
(1596299198.998032) can0 46B#09FFFFFFFFFFFFB0
(1596299198.999029) can0 07D#0020000000000000
(1596299199.000012) can0 245#0001400000800093
(1596299199.001014) can0 4F0#0000000000008000
(1596299199.003250) can0 06C#0008091800000080
(1596299199.012171) can0 504#0502001104000000
(1596299199.015870) can0 07A#0100000000000000
(1596299199.018212) can0 0DF#0100000000000000
(1596299199.020350) can0 080#0000030D3DC48505
(1596299199.021822) can0 0F7#026801A880000300
(1596299199.022835) can0 214#0000000000000000
(1596299199.023778) can0 0FD#C3709819E1000000
(1596299199.024729) can0 110#642902FD00007E04
(1596299199.025681) can0 2A0#2C2F000000030D3D
(1596299199.027230) can0 0A3#000000C551040040
(1596299199.028325) can0 180#3DC8000003830103
(1596299199.031318) can0 188#03830CC200000000
(1596299199.033594) can0 06C#0008091800000080
(1596299199.034561) can0 07E#003B99200004E024
(1596299199.035535) can0 0B0#16000822FD020C00
(1596299199.036527) can0 160#0000000008000000
(1596299199.037477) can0 335#590D00C203000000
(1596299199.038476) can0 07D#0020000000000000
(1596299199.043244) can0 301#0400300000000000
(1596299199.047077) can0 102#0000001C80030D3D
(1596299199.048540) can0 310#8C08000000920800
(1596299199.053571) can0 302#4111271C11FFFFFF
(1596299199.055881) can0 07A#0100000000000000
(1596299199.058008) can0 0DF#0100000000000000
(1596299199.059000) can0 230#0000000000120000
(1596299199.059975) can0 440#3207500002648000
(1596299199.061858) can0 2F0#0000100040000000
(1596299199.063461) can0 06C#0008091800000080
(1596299199.067184) can0 0A3#000000E551040040
(1596299199.070582) can0 080#0000030D3DC40505
(1596299199.071814) can0 0F7#026801A880000300
(1596299199.072827) can0 214#0000000000000000
(1596299199.073761) can0 0FD#9370B019E1000000
(1596299199.074856) can0 201#0000000000000000
(1596299199.078192) can0 07D#0020000000000000
(1596299199.079175) can0 245#0001400000800093
(1596299199.083135) can0 07E#003B99200004E024
(1596299199.087515) can0 110#642902FD00007E04
(1596299199.088045) can0 0B0#16000822FD020C00
(1596299199.088864) can0 180#3DC8000003830103
(1596299199.093677) can0 06C#0008091800000080
(1596299199.095987) can0 07A#0100000000000000
(1596299199.096994) can0 304#0000000000000000
(1596299199.098249) can0 0DF#0100000000000000
(1596299199.106607) can0 188#03830CC200000000
(1596299199.107569) can0 0A3#000000C551040040
(1596299199.108527) can0 102#0000001C80030D3D
(1596299199.118164) can0 07D#0020000000000000
(1596299199.120218) can0 080#0000030D3DC40505
(1596299199.121923) can0 0F7#026801A880000300
(1596299199.122934) can0 214#0000000000000000
(1596299199.123926) can0 06C#00080E1800000080
(1596299199.124869) can0 0FD#7370C019E1000000
(1596299199.125852) can0 505#1102000105000000
(1596299199.133559) can0 07E#003B99200004E024
(1596299199.134896) can0 0B0#16000822FD020C00
(1596299199.135815) can0 455#7004400092030D3D
(1596299199.136829) can0 07A#0100000000000000
(1596299199.137821) can0 160#0000000008000000
(1596299199.138828) can0 0DF#0100000000000000
(1596299199.143220) can0 2A0#2C2F000000030D3D
(1596299199.144171) can0 110#642902FD00007E04
(1596299199.147078) can0 0A3#000000C551040040
(1596299199.148509) can0 180#3DC8000003830103
(1596299199.153822) can0 06C#0008091800000080
(1596299199.158122) can0 230#0000000000120000
(1596299199.159124) can0 07D#0020000000000000
(1596299199.160107) can0 245#0001400000800093
(1596299199.161085) can0 440#3207500002648000
(1596299199.163352) can0 301#0400300000000000
(1596299199.164958) can0 201#0000000000000000
(1596299199.167027) can0 102#0000001C80030D3D
(1596299199.168585) can0 310#8C08000000920800
(1596299199.170500) can0 080#0000030D3DC40505
(1596299199.171909) can0 0F7#026801A880000300
(1596299199.172920) can0 214#0000000000000000
(1596299199.173855) can0 0FD#4370D819E1000000
(1596299199.176032) can0 07A#0100000000000000
(1596299199.178206) can0 0DF#0100000000000000
(1596299199.179205) can0 4F0#0000000000008000
(1596299199.181798) can0 188#03830CC200000000
(1596299199.182786) can0 2F0#0000100040000000
(1596299199.183786) can0 06C#0008091800000080
(1596299199.188102) can0 07E#003B99200004E024
(1596299199.188413) can0 0B0#16000822FD020C00
(1596299199.189068) can0 0A3#000000C551040040
(1596299199.193465) can0 330#501B030D3D030D3D
(1596299199.198327) can0 07D#0020000000000000
(1596299199.199277) can0 32A#1F00300020030D3D
(1596299199.203139) can0 400#0D02010201020202
(1596299199.204082) can0 110#642902FD00007E04
(1596299199.205017) can0 405#0166562111C003EF
(1596299199.208192) can0 180#3DC8000003830103
(1596299199.213579) can0 06C#0008091800000080
(1596299199.215882) can0 07A#0100000000000000
(1596299199.216881) can0 304#0000000000000000
(1596299199.218080) can0 0DF#0100000000000000
(1596299199.219851) can0 080#0000030D3DC40505
(1596299199.221844) can0 0F7#026801A880000300
(1596299199.222840) can0 214#0000000000000000
(1596299199.223782) can0 0FD#2370E819E1000000
(1596299199.226868) can0 0A3#000000C551040040
(1596299199.227825) can0 102#0000001C80030D3D
(1596299199.233431) can0 07E#003B99200004E024
(1596299199.234375) can0 302#4111271C11FFFFFF
(1596299199.235349) can0 0B0#16000822FD020C00
(1596299199.236349) can0 160#0000000008000000
(1596299199.237291) can0 511#4712000105000000
(1596299199.238293) can0 07D#0020000000000000
(1596299199.239276) can0 245#0001400000800093
(1596299199.243462) can0 06C#0008091800000080
(1596299199.254832) can0 201#0000000000000000
(1596299199.255873) can0 07A#0100000000000000
(1596299199.256888) can0 188#03830CC200000000
(1596299199.258159) can0 0DF#0100000000000000
(1596299199.259151) can0 230#0000000000120000
(1596299199.260114) can0 440#3207500002648000
(1596299199.263157) can0 2A0#2C2F000000030D3D
(1596299199.264106) can0 110#642902FD00007E04
(1596299199.266894) can0 0A3#000000C551040040
(1596299199.268229) can0 180#3DC8000003830103
(1596299199.269905) can0 080#0000030D3DC40505
(1596299199.271811) can0 0F7#026801A880000300
(1596299199.272823) can0 214#0000000000000000
(1596299199.273813) can0 06C#0008091800000080
(1596299199.274773) can0 0FD#F3708019E1000000
(1596299199.278118) can0 07D#0020000000000000
(1596299199.283175) can0 07E#003B99200004E024
(1596299199.284164) can0 301#0400300000000000
(1596299199.285137) can0 0B0#16000822FD020C00
(1596299199.286128) can0 160#0000000008000000
(1596299199.287085) can0 102#0000001C80030D3D
(1596299199.288714) can0 310#8C08000000920800
(1596299199.295869) can0 07A#0100000000000000
(1596299199.298097) can0 0DF#0100000000000000
(1596299199.299749) can0 488#0000000000005800
(1596299199.301861) can0 2F0#0000100040000000
(1596299199.302844) can0 45A#0000000000000006
(1596299199.303835) can0 06C#0008091800000080
(1596299199.306767) can0 0A3#000000C551040040
(1596299199.318146) can0 07D#0020000000000000
(1596299199.319127) can0 245#0001400000800093
(1596299199.320084) can0 080#0000030D3DC40505
(1596299199.321825) can0 0F7#026801A880000300
(1596299199.322833) can0 214#0000000000000000
(1596299199.323775) can0 0FD#D3709019E1000000
(1596299199.324727) can0 110#642902FD00007E04
(1596299199.328402) can0 180#3DC8000003830103
(1596299199.332049) can0 188#03830CC200000000
(1596299199.333695) can0 06C#0008091800000080
(1596299199.334662) can0 07E#003B99200004E024
(1596299199.335636) can0 0B0#16000822FD020C00
(1596299199.336665) can0 07A#0100000000000000
(1596299199.337642) can0 160#0000000008000000
(1596299199.338649) can0 0DF#0100000000000000
(1596299199.339656) can0 304#0000000000000000
(1596299199.340592) can0 335#590D00C21A000000
(1596299199.341567) can0 547#0112000047000000
(1596299199.344826) can0 201#0000000000000000
(1596299199.346679) can0 0A3#000000E551040040
(1596299199.347637) can0 102#0000001C80030D3D
(1596299199.357969) can0 230#0000000000120000
(1596299199.358962) can0 07D#0020000000000000
(1596299199.359951) can0 440#3207500002648000
(1596299199.360922) can0 46B#0AFFFFFFFFFFFFB0
(1596299199.363807) can0 4F0#0000000000008000
(1596299199.364118) can0 06C#0008091800000080
(1596299199.369607) can0 080#0000030D3DC40505
(1596299199.371817) can0 0F7#026801A880000300
(1596299199.372828) can0 214#0000000000000000
(1596299199.373771) can0 0FD#A370A819E1000000
(1596299199.375883) can0 07A#0100000000000000
(1596299199.378281) can0 0DF#0100000000000000
(1596299199.383023) can0 2A0#2C2F000000030D3D
(1596299199.383994) can0 07E#003B99200004E024
(1596299199.387964) can0 0B0#16000822FD020C00
(1596299199.388354) can0 110#642902FD00007E04
(1596299199.389179) can0 180#3DC8000003830103
(1596299199.393724) can0 06C#00080E1800000080
(1596299199.398339) can0 07D#0020000000000000
(1596299199.399321) can0 245#0001400000800093
(1596299199.403243) can0 490#04007936CC108000
(1596299199.404231) can0 301#0400300000000000
(1596299199.406571) can0 102#0000001C80030D3D
(1596299199.407535) can0 188#03830CC200000000
(1596299199.408601) can0 4A0#01010000A56AFDAF
(1596299199.409564) can0 310#8C08000000920800
(1596299199.413559) can0 302#4110271C11FFFFFF
(1596299199.415963) can0 07A#0100000000000000
(1596299199.418123) can0 0DF#0100000000000000
(1596299199.419041) can0 330#501B030D3D030D3D
(1596299199.419998) can0 080#0000030D3DC40505
(1596299199.421945) can0 0F7#026801A880000300
(1596299199.422956) can0 214#0000000000000000
(1596299199.423947) can0 06C#0008091800000080
(1596299199.424907) can0 0FD#8370B819E1000000
(1596299199.425896) can0 2F0#0000100040000000
(1596299199.426864) can0 0A3#000000C551040040
(1596299199.427814) can0 32A#1F28300020030D3D
(1596299199.428757) can0 48A#A880008264C00080
(1596299199.433598) can0 4B0#84010100008030F1
(1596299199.434562) can0 07E#003B99200004E024
(1596299199.435537) can0 0B0#16000822FD020C00
(1596299199.436529) can0 160#0000000008000000
(1596299199.437526) can0 201#0000000000000000
(1596299199.438525) can0 07D#0020000000000000
(1596299199.439444) can0 455#7004400092030D3D
(1596299199.440391) can0 496#C0523C3F00000000
(1596299199.441385) can0 4BA#2000000000000000
(1596299199.442348) can0 4C0#0000000000030D3D
(1596299199.443413) can0 110#642902FD00007E04
(1596299199.444412) can0 501#0302004101000000
(1596299199.448308) can0 400#0E02040101010101
(1596299199.449299) can0 180#3DC8000003830103
(1596299199.450242) can0 405#0243410030030D3D
(1596299199.453721) can0 06C#0008091800000080
(1596299199.455974) can0 07A#0100000000000000
(1596299199.456983) can0 304#0000000000000000
(1596299199.458174) can0 0DF#0100000000000000
(1596299199.459165) can0 230#0000000000120000
(1596299199.460141) can0 440#3207500002648000
(1596299199.461169) can0 4D0#4000200000000000
(1596299199.466706) can0 0A3#000000C551040040
(1596299199.467665) can0 102#0000001C80030D3D
(1596299199.469514) can0 080#0000030D3DC40505
(1596299199.471940) can0 0F7#026801A880000300
(1596299199.472951) can0 214#0000000000000000
(1596299199.473895) can0 0FD#5370D019E1000000
(1596299199.478231) can0 07D#0020000000000000
(1596299199.479214) can0 245#0001400000800093
(1596299199.482527) can0 188#03830CC200000000
(1596299199.483516) can0 06C#0008091800000080
(1596299199.488184) can0 07E#003B99200004E024
(1596299199.488608) can0 160#0000000008000000
(1596299199.488919) can0 0B0#16000822FD020C00
(1596299199.495852) can0 07A#0100000000000000
(1596299199.498163) can0 0DF#0100000000000000
(1596299199.503035) can0 2A0#2C2F000000030D3D
(1596299199.503984) can0 110#642902FD00007E04
(1596299199.506475) can0 0A3#000000C551040040
(1596299199.508435) can0 180#3DC8000003830103
(1596299199.513742) can0 06C#0008091800000080
(1596299199.518066) can0 07D#0020000000000000
(1596299199.519183) can0 080#0000030D3DC48505
(1596299199.521848) can0 0F7#026801A880000300
(1596299199.522859) can0 214#0000000000000000
(1596299199.523803) can0 0FD#3370E019E1000000
(1596299199.524794) can0 301#0400300000000000
(1596299199.525791) can0 201#0000000000000000
(1596299199.526750) can0 102#0000001C80030D3D
(1596299199.528638) can0 310#8C08000000920800
(1596299199.533408) can0 07E#003B99200004E024
(1596299199.534836) can0 0B0#16000822FD020C00
(1596299199.535859) can0 07A#0100000000000000
(1596299199.536850) can0 160#0000000008000000
(1596299199.538114) can0 0DF#0100000000000000
(1596299199.539113) can0 4F0#0000000000008000
(1596299199.541880) can0 2F0#0000100040000000
(1596299199.543246) can0 06C#0008091800000080
(1596299199.546433) can0 0A3#000000C551040040
(1596299199.551848) can0 503#0412000003000000
(1596299199.557595) can0 188#03830CC200000000
(1596299199.558594) can0 07D#0020000000000000
(1596299199.559584) can0 230#0000000000120000
(1596299199.560568) can0 245#0001400000800093
(1596299199.561546) can0 440#3207500002648000
(1596299199.563127) can0 110#642902FD00007E04
(1596299199.568246) can0 180#3DC8000003830103
(1596299199.569403) can0 080#0000030D3DC40505
(1596299199.571826) can0 0F7#026801A880000300
(1596299199.572840) can0 214#0000000000000000
(1596299199.573832) can0 06C#0008091800000080
(1596299199.574791) can0 0FD#0370F819E1000000
(1596299199.575878) can0 07A#0100000000000000
(1596299199.576895) can0 304#0000000000000000
(1596299199.578189) can0 0DF#0100000000000000
(1596299199.583134) can0 07E#003B99200004E024
(1596299199.588245) can0 0B0#16000822FD020C00
(1596299199.588774) can0 102#0000001C80030D3D
(1596299199.589163) can0 160#0000000008000000
(1596299199.593666) can0 302#4111271C11FFFFFF
(1596299199.598214) can0 07D#0020000000000000
(1596299199.603502) can0 06C#0008091800000080
(1596299199.614947) can0 201#0000000000000000
(1596299199.615978) can0 07A#0100000000000000
(1596299199.618242) can0 0DF#0100000000000000
(1596299199.619197) can0 080#0000030D3DC40505
(1596299199.621952) can0 0F7#026801A880000300
(1596299199.622962) can0 214#0000000000000000
(1596299199.623910) can0 0FD#E3708819E1000000
(1596299199.624855) can0 110#642902FD00007E04
(1596299199.625807) can0 2A0#2C2F000000030D3D
(1596299199.626783) can0 0A3#000000C551040040
(1596299199.628502) can0 180#3DC8000003830103
(1596299199.632891) can0 188#03830CC200000000
(1596299199.633878) can0 06C#0008091800000080
(1596299199.634845) can0 07E#003B99200004E024
(1596299199.635821) can0 0B0#16000822FD020C00
(1596299199.636812) can0 160#0000000008000000
(1596299199.637755) can0 335#590D00C240000000
(1596299199.638754) can0 07D#0020000000000000
(1596299199.639737) can0 245#0001400000800093
(1596299199.643265) can0 301#0400300000000000
(1596299199.644182) can0 330#501B030D3D030D3D
(1596299199.646380) can0 102#0000001C80030D3D
(1596299199.648857) can0 310#8C08000000920800
(1596299199.649808) can0 32A#1F20300020030D3D
(1596299199.655953) can0 07A#0100000000000000
(1596299199.658188) can0 0DF#0100000000000000
(1596299199.659177) can0 230#0000000000120000
(1596299199.660152) can0 440#3207500002648000
(1596299199.661156) can0 488#0000000000005800
(1596299199.662142) can0 2F0#0000100040000000
(1596299199.663126) can0 45A#0000000000000006
(1596299199.664118) can0 06C#0008091800000080
(1596299199.665107) can0 504#0502001104000000
(1596299199.666473) can0 0A3#000000E551040040
(1596299199.669009) can0 080#0000030D3DC40505
(1596299199.671955) can0 0F7#026801A880000300
(1596299199.672966) can0 214#0000000000000000
(1596299199.673901) can0 0FD#B370A019E1000000
(1596299199.678365) can0 07D#0020000000000000
(1596299199.683168) can0 07E#003B99200004E024
(1596299199.684116) can0 110#642902FD00007E04
(1596299199.688776) can0 0B0#16000822FD020C00
(1596299199.689200) can0 180#3DC8000003830103
(1596299199.689510) can0 160#0000000008000000
(1596299199.693670) can0 06C#0008091800000080
(1596299199.695852) can0 07A#0100000000000000
(1596299199.696859) can0 304#0000000000000000
(1596299199.698138) can0 0DF#0100000000000000
(1596299199.703106) can0 400#0F01020102020000
(1596299199.704103) can0 405#0000000000000000
(1596299199.705102) can0 201#0000000000000000
(1596299199.706227) can0 0A3#000000C551040040
(1596299199.707184) can0 102#0000001C80030D3D
(1596299199.708162) can0 188#03830CC200000000
(1596299199.718067) can0 46B#0BFFFFFFFFFFFFB0
(1596299199.719065) can0 07D#0020000000000000
(1596299199.720022) can0 080#0000030D3DC40505
(1596299199.721007) can0 245#0001400000800093
(1596299199.721954) can0 0F7#026801A880000300
(1596299199.722970) can0 214#0000000000000000
(1596299199.723960) can0 06C#0008091800000080
(1596299199.724895) can0 0FD#9370B019E1000000
(1596299199.725895) can0 4F0#0000000000008000
(1596299199.733426) can0 07E#003B99200004E024
(1596299199.734838) can0 0B0#16000822FD020C00
(1596299199.735853) can0 07A#0100000000000000
(1596299199.736844) can0 160#0000000008000000
(1596299199.737762) can0 455#7004400092030D3D
(1596299199.738770) can0 0DF#0100000000000000
(1596299199.743066) can0 2A0#2C2F000000030D3D
(1596299199.744014) can0 110#642902FD00007E04
(1596299199.746174) can0 0A3#000000C551040040
(1596299199.748339) can0 180#3DC8000003830103
(1596299199.753581) can0 06C#0008091800000080
(1596299199.758081) can0 230#0000000000120000
(1596299199.759080) can0 07D#0020000000000000
(1596299199.760055) can0 440#3207500002648000
(1596299199.763191) can0 301#0400300000000000
(1596299199.766106) can0 102#0000001C80030D3D
(1596299199.768545) can0 310#8C08000000920800
(1596299199.769502) can0 080#0000030D3DC40505
(1596299199.771840) can0 0F7#026801A880000300
(1596299199.772851) can0 214#0000000000000000
(1596299199.773793) can0 0FD#6370C819E1000000
(1596299199.774752) can0 302#4111281C11FFFFFF
(1596299199.775733) can0 505#1102000105000000
(1596299199.776748) can0 07A#0100000000000000
(1596299199.778181) can0 0DF#0100000000000000
(1596299199.781886) can0 2F0#0000300040000000
(1596299199.783141) can0 188#03830CC200000000
(1596299199.784133) can0 06C#0008091800000080
(1596299199.788498) can0 07E#003B99200004E024
(1596299199.789026) can0 160#0000000008000000
(1596299199.789414) can0 0B0#16000822FD020C00
(1596299199.794954) can0 201#0000000000000000
(1596299199.798452) can0 07D#0020000000000000
(1596299199.799434) can0 245#0001400000800093
(1596299199.803217) can0 110#642902FD00007E04
(1596299199.808405) can0 180#3DC8000003830103
(1596299199.813719) can0 06C#0008091800000080
(1596299199.815956) can0 07A#0100000000000000
(1596299199.816965) can0 304#0000000000000000
(1596299199.818244) can0 0DF#0100000000000000
(1596299199.819200) can0 080#0000030D3DC40505
(1596299199.821967) can0 0F7#026801A880000300
(1596299199.822981) can0 214#0000000000000000
(1596299199.823915) can0 0FD#4370D819E1000000
(1596299199.826193) can0 0A3#000000C551040040
(1596299199.827149) can0 102#0000001C80030D3D
(1596299199.833603) can0 07E#003B99200004E024
(1596299199.834950) can0 0B0#16000822FD020C00
(1596299199.835941) can0 160#0000000008000000
(1596299199.838286) can0 07D#0020000000000000
(1596299199.843278) can0 06C#0008091800000080
(1596299199.853565) can0 490#04007936CC108000
(1596299199.855939) can0 07A#0100000000000000
(1596299199.858306) can0 0DF#0100000000000000
(1596299199.859283) can0 188#03830CC200000000
(1596299199.860274) can0 230#0000000000120000
(1596299199.861237) can0 440#3207500002638000
(1596299199.863207) can0 2A0#2C2F000000030D3D
(1596299199.864158) can0 110#642902FD00007E04
(1596299199.866106) can0 0A3#000000C551040040
(1596299199.868524) can0 080#0000030D3DC40505
(1596299199.869517) can0 180#3DC8000003830103
(1596299199.870435) can0 330#501B030D3D030D3D
(1596299199.871963) can0 0F7#026801A880000300
(1596299199.872975) can0 214#0000000000000000
(1596299199.873964) can0 06C#0008091800000080
(1596299199.874916) can0 0FD#1370F019E1000000
(1596299199.875867) can0 32A#1F28300020030D3D
(1596299199.876819) can0 48A#A880000264C00080
(1596299199.878340) can0 07D#0020000000000000
(1596299199.879322) can0 245#0001400000800093
(1596299199.883302) can0 07E#003B99200004E024
(1596299199.884289) can0 301#0400300000000000
(1596299199.888932) can0 0B0#16000822FD020C00
(1596299199.889356) can0 102#0000001C80030D3D
(1596299199.890012) can0 511#4712000105000000
(1596299199.895832) can0 07A#0100000000000000
(1596299199.898191) can0 0DF#0100000000000000
(1596299199.899189) can0 4F0#0000000000008000
(1596299199.901918) can0 2F0#0000100040000000
(1596299199.903260) can0 06C#0008091800000080
(1596299199.905943) can0 0A3#000000C551040040
(1596299199.918178) can0 080#0000030D3DC40505
(1596299199.919176) can0 07D#0020000000000000
(1596299199.921856) can0 0F7#026801A880000300
(1596299199.922868) can0 214#0000000000000000
(1596299199.923827) can0 0FD#F3708019E1000000
(1596299199.924779) can0 110#642902FD00007E04
(1596299199.928419) can0 180#3DC8000003830103
(1596299199.933505) can0 188#03830CC200000000
(1596299199.934493) can0 06C#0008091800000080
(1596299199.935460) can0 07E#003B99200004E024
(1596299199.936475) can0 07A#0100000000000000
(1596299199.937440) can0 0B0#17000822FD020C00
(1596299199.938447) can0 0DF#0100000000000000
(1596299199.939438) can0 160#0000000008000000
(1596299199.940443) can0 304#0000000000000000
(1596299199.941381) can0 335#590D00C21A000000
(1596299199.945884) can0 0A3#000000E551040040
(1596299199.946842) can0 102#0000001C80030D3D
(1596299199.948594) can0 400#1001010102010000
(1596299199.949593) can0 405#0000000000000000
(1596299199.953435) can0 302#4111281C11FFFFFF
(1596299199.958071) can0 230#0000000000120000
(1596299199.959071) can0 07D#0020000000000000
(1596299199.960053) can0 245#0001400000800093
(1596299199.961031) can0 440#3207500002648000
(1596299199.963524) can0 06C#0008091800000080
(1596299199.968152) can0 080#0000030D3DC40505
(1596299199.971848) can0 0F7#026801A880000300
(1596299199.972861) can0 214#0000000000000000
(1596299199.973803) can0 0FD#C3709819E1000000
(1596299199.974906) can0 201#0000000000000000
(1596299199.975921) can0 07A#0100000000000000
(1596299199.978255) can0 0DF#0100000000000000
(1596299199.983034) can0 2A0#2C2F000000030D3D
(1596299199.983999) can0 07E#003B99200004E024
(1596299199.984975) can0 0B0#17000822FD020C00
(1596299199.988952) can0 0A3#000000C551040040
(1596299199.989341) can0 110#642902FD00007E04
(1596299199.990160) can0 180#3DC8000003830103
(1596299199.993740) can0 06C#0008091800000080
(1596299199.998337) can0 07D#0020000000000000
(1596299200.000945) can0 547#0112000047000000
(1596299200.003414) can0 301#0400300000000000
(1596299200.005898) can0 102#0000001C80030D3D
(1596299200.008793) can0 188#03830CC200000000
(1596299200.009759) can0 310#8C08000000920800
(1596299200.015934) can0 07A#0100000000000000
(1596299200.018033) can0 080#0000030D3DC48505
(1596299200.019039) can0 0DF#0100000000000000
(1596299200.020037) can0 488#0000000000005800
(1596299200.021966) can0 0F7#026881A880000380
(1596299200.022977) can0 214#0000000000000000
(1596299200.023968) can0 06C#00080E1800000080
(1596299200.024911) can0 0FD#A370A819E1000000
(1596299200.025902) can0 2F0#0000100040000000
(1596299200.026869) can0 0A3#000000C551040040
(1596299200.027854) can0 45A#0000000000000006
(1596299200.033561) can0 07E#003B99200004E024
(1596299200.034964) can0 0B0#17000822FD020C00
(1596299200.035954) can0 160#0000000008000000
(1596299200.036874) can0 455#7004400092030D3D
(1596299200.037825) can0 496#C0523C3F00000000
(1596299200.038823) can0 07D#0020000000000000
(1596299200.039810) can0 245#0001400000800093
(1596299200.043249) can0 110#642902FD00007E04
(1596299200.048585) can0 180#3DC8000003830103
(1596299200.053823) can0 06C#00080E1800000080
(1596299200.055954) can0 07A#0100000000000000
(1596299200.056961) can0 304#0000000000000000
(1596299200.058248) can0 0DF#0100000000000000
(1596299200.059240) can0 230#0000000000120000
(1596299200.060214) can0 440#3207500002648000
(1596299200.064994) can0 201#0000000000000000
(1596299200.065958) can0 0A3#000000C551040040
(1596299200.066915) can0 102#0000001C80030D3D
(1596299200.068288) can0 080#0000030D3DC40505
(1596299200.071994) can0 0F7#026801A880000380
(1596299200.073006) can0 214#0000000000000000
(1596299200.073948) can0 0FD#7370C019E1000000
(1596299200.078259) can0 46B#0BFFFFFFFFFFFF30
(1596299200.079260) can0 07D#0020000000000000
(1596299200.080260) can0 4F0#0000000000008000
(1596299200.083300) can0 06C#0008091800000080
(1596299200.084264) can0 07E#003B99200004E024
(1596299200.085240) can0 0B0#17000822FD020C00
(1596299200.089563) can0 160#0000000008000000
(1596299200.089874) can0 188#03830CC200000000
(1596299200.093591) can0 330#501B030D3D030D3D
(1596299200.095819) can0 07A#0100000000000000
(1596299200.098394) can0 0DF#0100000000000000
(1596299200.099344) can0 32A#1F00300020030D3D
(1596299200.103088) can0 2A0#2C2F000000030D3D
(1596299200.104041) can0 110#642902FD00007E04
(1596299200.105023) can0 501#0302004101000000
(1596299200.105989) can0 0A3#000000C551040040
(1596299200.108300) can0 180#3DC8000003830103
(1596299200.113603) can0 06C#0008091800000080
(1596299200.117697) can0 080#0000030D3DC40505
(1596299200.118696) can0 07D#0020000000000000
(1596299200.119680) can0 245#0001400000800093
(1596299200.121873) can0 0F7#026801A880000300
(1596299200.122884) can0 214#0000000000000000
(1596299200.123827) can0 0FD#5370D019E1000000
(1596299200.124817) can0 301#0400300000000000
(1596299200.125776) can0 102#0000001C80030D3D
(1596299200.128592) can0 4A0#01010000A569FDB1
(1596299200.129562) can0 310#8C08000000920800
(1596299200.133480) can0 07E#003B99200004E024
(1596299200.134447) can0 302#4110281C11FFFFFF
(1596299200.135414) can0 0B0#17000822FD020C00
(1596299200.136428) can0 07A#0100000000000000
(1596299200.137419) can0 160#0000000008000000
(1596299200.138426) can0 0DF#0100000000000000
(1596299200.141906) can0 2F0#0000100040000000
(1596299200.143367) can0 06C#0008091800000080
(1596299200.145629) can0 0A3#000000C551040040
(1596299200.153382) can0 4B0#04010100008030F1
(1596299200.154890) can0 201#0000000000000000
(1596299200.155857) can0 4C0#0000000000030D3D
(1596299200.158176) can0 230#0000000000120000
(1596299200.159174) can0 07D#0020000000000000
(1596299200.160151) can0 188#03830CC200000000
(1596299200.161128) can0 440#3207500002648000
(1596299200.162118) can0 4BA#2000000000000000
(1596299200.163197) can0 110#642902FD00007E04
(1596299200.167896) can0 080#0000030D3DC40505
(1596299200.168888) can0 180#3DC8000003830103
(1596299200.171894) can0 0F7#026801A880000300
(1596299200.172885) can0 214#0000000000000000
(1596299200.173875) can0 06C#00080E1800000080
(1596299200.174826) can0 0FD#2370E819E1000000
(1596299200.175850) can0 07A#0100000000000000
(1596299200.176858) can0 304#0000000000000000
(1596299200.178208) can0 0DF#0100000000000000
(1596299200.179200) can0 4D0#4000200000000000
(1596299200.183148) can0 07E#003B99200004E024
(1596299200.184878) can0 0B0#17000822FD020C00
(1596299200.189249) can0 0A3#000000C551040040
(1596299200.189779) can0 160#0000000008000000
(1596299200.190167) can0 102#0000001C80030D3D
(1596299200.198267) can0 07D#0020000000000000
(1596299200.199249) can0 245#0001400000800093
(1596299200.203285) can0 400#1101000000000003
(1596299200.204271) can0 06C#0008091800000080
(1596299200.205206) can0 405#0166562111CAFC10
(1596299200.211984) can0 503#0412000003000000
(1596299200.215926) can0 07A#0100000000000000
(1596299200.217592) can0 080#0000030D3DC40505
(1596299200.218600) can0 0DF#0100000000000000
(1596299200.221974) can0 0F7#026801A880000300
(1596299200.222989) can0 214#0000000000000000
(1596299200.223946) can0 0FD#0370F819E1000000
(1596299200.224896) can0 110#642902FD00007E04
(1596299200.225864) can0 0A3#000000C551040040
(1596299200.226815) can0 2A0#2C2F000000030D3D
(1596299200.228710) can0 180#3DC8000003830103
(1596299200.233770) can0 06C#0008091800000080
(1596299200.234733) can0 07E#003B99200004E024
(1596299200.235700) can0 0B0#17000822FD020C00
(1596299200.236690) can0 160#0000000008000000
(1596299200.237667) can0 188#03830CC200000000
(1596299200.238667) can0 07D#0020000000000000
(1596299200.239617) can0 335#590D00C203000000
(1596299200.243281) can0 301#0400300000000000
(1596299200.245005) can0 201#0000000000000000
(1596299200.245975) can0 102#0000001C80030D3D
(1596299200.248564) can0 310#8C08000000920800
(1596299200.255925) can0 07A#0100000000000000
(1596299200.258207) can0 0DF#0100000000000000
(1596299200.259199) can0 230#0000000000120000
(1596299200.260172) can0 440#3207500002648000
(1596299200.261175) can0 4F0#0000000000008000
(1596299200.262161) can0 2F0#0000100040000000
(1596299200.263370) can0 06C#0008091800000080
(1596299200.265565) can0 0A3#000000E551040040
(1596299200.267639) can0 080#0000030D3DC40505
(1596299200.271975) can0 0F7#026801A880000300
(1596299200.272988) can0 214#0000000000000000
(1596299200.273930) can0 0FD#D3709019E1000000
(1596299200.278497) can0 07D#0020000000000000
(1596299200.279480) can0 245#0001400000800093
(1596299200.283189) can0 07E#003B99200004E024
(1596299200.284137) can0 110#642902FD00007E04
(1596299200.285103) can0 0B0#17000822FD020C00
(1596299200.289765) can0 160#0000000008000000
(1596299200.290189) can0 180#3DC8000003830103
(1596299200.293475) can0 06C#0008091800000080
(1596299200.295819) can0 07A#0100000000000000
(1596299200.296833) can0 304#0000000000000000
(1596299200.298191) can0 0DF#0100000000000000
(1596299200.303113) can0 490#04007936CC108000
(1596299200.305371) can0 0A3#000000C551040040
(1596299200.306328) can0 102#0000001C80030D3D
(1596299200.309415) can0 188#03830CC200000000
(1596299200.313414) can0 302#4111281C11FFFFFF
(1596299200.317189) can0 080#0000030D3DC40505
(1596299200.318188) can0 07D#0020000000000000
(1596299200.319106) can0 330#501B030D3D030D3D
(1596299200.320448) can0 504#0502001104000000
(1596299200.321872) can0 0F7#026801A880000300
(1596299200.322885) can0 214#0000000000000000
(1596299200.323875) can0 06C#0008091800000080
(1596299200.324811) can0 0FD#B370A019E1000000
(1596299200.325762) can0 32A#1F28300020030D3D
(1596299200.326705) can0 48A#A880008264C00080
(1596299200.333455) can0 07E#003B99200004E024
(1596299200.334879) can0 0B0#17000822FD020C00
(1596299200.335894) can0 07A#0100000000000000
(1596299200.336885) can0 160#0000000008000000
(1596299200.337884) can0 201#0000000000000000
(1596299200.338891) can0 0DF#0100000000000000
(1596299200.339807) can0 455#7004400092030D3D
(1596299200.343096) can0 2A0#2C2F000000030D3D
(1596299200.344044) can0 110#642902FD00007E04
(1596299200.345386) can0 0A3#000000C551040040
(1596299200.348338) can0 180#3DC8000003830103
(1596299200.353524) can0 06C#0008091800000080
(1596299200.358065) can0 230#0000000000120000
(1596299200.359064) can0 07D#0020000000000000
(1596299200.360046) can0 245#0001400000800093
(1596299200.361024) can0 440#3207500002648000
(1596299200.363206) can0 301#0400300000000000
(1596299200.365312) can0 102#0000001C80030D3D
(1596299200.367355) can0 080#0000030D3DC40505
(1596299200.368859) can0 310#8C08000000920800
(1596299200.371869) can0 0F7#026801A880000300
(1596299200.372880) can0 214#0000000000000000
(1596299200.373840) can0 0FD#8370B819E1000000
(1596299200.375847) can0 07A#0100000000000000
(1596299200.377146) can0 488#0000000000005800
(1596299200.378202) can0 0DF#0100000000000000
(1596299200.381932) can0 2F0#0000100040000000
(1596299200.383218) can0 06C#0008091800000080
(1596299200.384184) can0 07E#003B99200004E024
(1596299200.385150) can0 0B0#17000822FD020C00
(1596299200.389527) can0 0A3#000000C551040040
(1596299200.390056) can0 45A#0000000000000006
(1596299200.390444) can0 160#0000000008000000
(1596299200.398440) can0 07D#0020000000000000
(1596299200.403228) can0 110#6E29D02F00007E02
(1596299200.408535) can0 180#3DC8000003830103
(1596299200.413807) can0 06C#0008091800000080
(1596299200.415926) can0 07A#0100000000000000
(1596299200.416931) can0 304#0000000000000000
(1596299200.417889) can0 080#0000030D3DC40505
(1596299200.418897) can0 0DF#0100000000000000
(1596299200.421992) can0 0F7#026801A880000300
(1596299200.423003) can0 214#0000000000000000
(1596299200.423947) can0 0FD#6370C819E1000000
(1596299200.425057) can0 201#0000000000000000
(1596299200.426022) can0 0A3#000000C551040040
(1596299200.426981) can0 102#0000001C80030D3D
(1596299200.432084) can0 505#1102000105000000
(1596299200.433503) can0 07E#003B99200004E024
(1596299200.434988) can0 0B0#17000822FD020C00
(1596299200.435980) can0 160#0000000008000000
(1596299200.438204) can0 46B#0CFFFFFFFFFFFFB0
(1596299200.439201) can0 07D#0020000000000000
(1596299200.440183) can0 245#0001400000800093
(1596299200.441187) can0 4F0#0000000000008000
(1596299200.443278) can0 06C#0008091800000080
(1596299200.448304) can0 400#1201020202030102
(1596299200.449246) can0 405#0243410030030D3D
(1596299200.455911) can0 07A#0100000000000000
(1596299200.458395) can0 0DF#0100000000000000
(1596299200.459385) can0 230#0000000000120000
(1596299200.460363) can0 188#03830CC200000000
(1596299200.461340) can0 440#3207500002648000
(1596299200.463193) can0 2A0#2C2F000000030D3D
(1596299200.464145) can0 110#6429D02F00007E02
(1596299200.465334) can0 0A3#000000C551040040
(1596299200.466984) can0 080#0000030D3DC40505
(1596299200.468465) can0 180#3DC8000003830103
(1596299200.471986) can0 0F7#026801A880000300
(1596299200.472998) can0 214#0000000000000000
(1596299200.473988) can0 06C#0008091800000080
(1596299200.474932) can0 0FD#3370E019E1000000
(1596299200.478306) can0 07D#0020000000000000
(1596299200.483232) can0 07E#003B99200004E024
(1596299200.484219) can0 301#0400300000000000
(1596299200.485193) can0 0B0#16000822FD024800
(1596299200.486163) can0 102#0000001C80030D3D
(1596299200.490124) can0 160#0000000008000000
(1596299200.490435) can0 310#8C08000000920800
(1596299200.493370) can0 302#4111281C11FFFFFF
(1596299200.495821) can0 07A#0100000000000000
(1596299200.498182) can0 0DF#0100000000000000
(1596299200.501919) can0 2F0#0000100040000000
(1596299200.503484) can0 06C#0008091800000080
(1596299200.505130) can0 0A3#000000C551040040
(1596299200.514912) can0 201#0000000000000000
(1596299200.516723) can0 080#0000030D3DC48505
(1596299200.518232) can0 07D#0020000000000000
(1596299200.519215) can0 245#0001400000800093
(1596299200.521896) can0 0F7#026801A880000300
(1596299200.522908) can0 214#0000000000000000
(1596299200.523860) can0 0FD#1370F019E1000000
(1596299200.524804) can0 110#6E29D02F00007E03
(1596299200.528385) can0 180#3DC8000003830103
(1596299200.533483) can0 06C#0008091800000080
(1596299200.534449) can0 07E#003B99200004E024
(1596299200.535416) can0 0B0#17000822FD020800
(1596299200.536432) can0 07A#0100000000000000
(1596299200.537422) can0 160#0000000008000000
(1596299200.538429) can0 0DF#0100000000000000
(1596299200.539404) can0 188#03830CC200000000
(1596299200.540412) can0 304#0000000000000000
(1596299200.541348) can0 335#590D00C21A000000
(1596299200.543272) can0 330#501B030D3D030D3D
(1596299200.544895) can0 511#4712000105000000
(1596299200.545860) can0 0A3#000000E551040040
(1596299200.546818) can0 102#0000001C80030D3D
(1596299200.548795) can0 32A#1F28300020030D3D
(1596299200.558036) can0 230#0000000000120000
(1596299200.559032) can0 07D#0020000000000000
(1596299200.560008) can0 440#3207500002648000
(1596299200.563223) can0 06C#0008091800000080
(1596299200.566933) can0 080#0000030D3DC40505
(1596299200.571885) can0 0F7#026801A880000300
(1596299200.572897) can0 214#0000000000000000
(1596299200.573840) can0 0FD#E3708819E1000000
(1596299200.575832) can0 07A#0100000000000000
(1596299200.578246) can0 0DF#0100000000000000
(1596299200.583011) can0 2A0#2C2F000000030D3D
(1596299200.583973) can0 07E#003B99200004E024
(1596299200.584916) can0 0B0#17000822E11ECC00
(1596299200.585891) can0 0A3#000000C551040040
(1596299200.599873) can0 110#6429D02F00007E03
(1596299200.600261) can0 160#0000000008000000
(1596299200.601085) can0 245#0001400000800093
(1596299200.603301) can0 301#0400300000000000
(1596299200.605044) can0 201#0000000000000000
(1596299200.606001) can0 102#0000001C80030D3D
(1596299200.608560) can0 310#8C08000000920800
(1596299200.610259) can0 188#03830CC200000000
(1596299200.615915) can0 07A#0100000000000000
(1596299200.616871) can0 080#0000030D3DC40505
(1596299200.618214) can0 0DF#0100000000000000
(1596299200.619214) can0 4F0#0000000000008000
(1596299200.622006) can0 0F7#026801A880000300
(1596299200.623019) can0 214#0000000000000000
(1596299200.624009) can0 06C#0008091800000080
(1596299200.624951) can0 0FD#C3709819E1000000
(1596299200.625916) can0 0A3#000000C551040040
(1596299200.626908) can0 2F0#0000100040000000
(1596299200.633632) can0 07E#003B99200004E024
(1596299200.634993) can0 0B0#17000822E11E0C00
(1596299200.635985) can0 160#0000000008000000
(1596299200.636903) can0 455#7004400091030D3D
(1596299200.637854) can0 496#C0523C3F00000000
(1596299200.638853) can0 07D#0020000000000000
(1596299200.643223) can0 110#6E29D02F00007E04
(1596299200.648413) can0 180#3DC8000003830103
(1596299200.650910) can0 547#0112000047000000
(1596299200.653609) can0 06C#0008091800000080
(1596299200.655912) can0 07A#0100000000000000
(1596299200.656919) can0 304#0000000000000000
(1596299200.658237) can0 0DF#0100000000000000
(1596299200.659231) can0 230#0000000000120000
(1596299200.660205) can0 440#3207500002648000
(1596299200.664989) can0 0A3#000000C551040040
(1596299200.665947) can0 102#0000001C80030D3D
(1596299200.666904) can0 080#0000030D3DC40505
(1596299200.672002) can0 0F7#026801A880000300
(1596299200.673013) can0 214#0000000000000000
(1596299200.673949) can0 0FD#9370B019E1000000
(1596299200.674914) can0 302#4110281C11FFFFFF
(1596299200.678250) can0 07D#0020000000000000
(1596299200.679233) can0 245#0001400000800093
(1596299200.683405) can0 06C#0008091800000080
(1596299200.684369) can0 07E#003B99200004E024
(1596299200.685319) can0 0B0#17000822E11E0C00
(1596299200.686322) can0 160#0000000008000000
(1596299200.690221) can0 188#03830CC200000000
(1596299200.694924) can0 201#0000000000000000
(1596299200.695938) can0 07A#0100000000000000
(1596299200.698337) can0 0DF#0100000000000000
(1596299200.703077) can0 2A0#2C2F000000030D3D
(1596299200.704016) can0 110#6429D02F00007E04
(1596299200.704982) can0 0A3#000000C551040040
(1596299200.705964) can0 400#1302000200020202
(1596299200.708306) can0 180#3DC8000003830103
(1596299200.713572) can0 06C#0008091800000080
(1596299200.716280) can0 080#0000030D3DC40505
(1596299200.718126) can0 07D#0020000000000000
(1596299200.721933) can0 0F7#026801A880000300
(1596299200.722914) can0 214#0000000000000000
(1596299200.723854) can0 0FD#7370C019E1000000
(1596299200.724857) can0 301#0400300000000000
(1596299200.725803) can0 102#0000001C80030D3D
(1596299200.728894) can0 310#8C08000000920800
(1596299200.733371) can0 07E#003B99200004E024
(1596299200.734947) can0 0B0#17000822E11E0C00
(1596299200.735955) can0 07A#0100000000000000
(1596299200.736942) can0 160#0000000008000000
(1596299200.737910) can0 488#0000000000005800
(1596299200.738925) can0 0DF#0100000000000000
(1596299200.741963) can0 2F0#0000300040000000
(1596299200.745006) can0 06C#0008091800000080
(1596299200.745319) can0 0A3#000000C551040040
(1596299200.745736) can0 45A#0000000000000006
(1596299200.753416) can0 490#04007936CC128000
(1596299200.754377) can0 501#0302004101000000
(1596299200.758123) can0 230#0000000000120000
(1596299200.759121) can0 07D#0020000000000000
(1596299200.760104) can0 245#0001400000800093
(1596299200.761095) can0 188#03830CC200000000
(1596299200.762055) can0 440#3207500002648000
(1596299200.763118) can0 110#6429D02F00007E04
(1596299200.766191) can0 080#0000030D3DC40505
(1596299200.768437) can0 180#3DC8000003830103
(1596299200.769355) can0 330#501B030D3D030D3D
(1596299200.771884) can0 0F7#026881A880000380
(1596299200.772897) can0 214#0000000000000000
(1596299200.773887) can0 06C#0008091800000080
(1596299200.774821) can0 0FD#4370D819E1000000
(1596299200.775836) can0 07A#0100000000000000
(1596299200.776843) can0 304#0000000000000000
(1596299200.777794) can0 32A#1F20300020030D3D
(1596299200.778801) can0 0DF#0100000000000000
(1596299200.779752) can0 48A#A880000264C00080
(1596299200.783177) can0 07E#003B99200004E024
(1596299200.784757) can0 0A3#000000C551040040
(1596299200.785707) can0 0B0#17000822E11E0C00
(1596299200.786676) can0 102#0000001C80030D3D
(1596299200.787657) can0 160#0000000008000000
(1596299200.788654) can0 201#0000000000000000
(1596299200.798151) can0 46B#0DFFFFFFFFFFFFB0
(1596299200.799149) can0 07D#0020000000000000
(1596299200.800148) can0 4F0#0000000000008000
(1596299200.803234) can0 06C#0008041800000080
(1596299200.815780) can0 07A#0100000000000000
(1596299200.816738) can0 080#0000030D3DC40505
(1596299200.818353) can0 0DF#0100000000000000
(1596299200.821921) can0 0F7#026801A880000380
(1596299200.822935) can0 214#0000000000000000
(1596299200.823886) can0 0FD#2370E819E1000000
(1596299200.824852) can0 0A3#000000C551040040
(1596299200.825794) can0 110#6429D02F00007E04
(1596299200.826749) can0 2A0#2C2F000000030D3D
(1596299200.828501) can0 180#3DC8000003830103
(1596299200.833493) can0 06C#0008091800000080
(1596299200.834455) can0 07E#003B99200004E024
(1596299200.835403) can0 0B0#17000822E11E0C00
(1596299200.836394) can0 160#0000000008000000
(1596299200.837374) can0 188#03830CC200000000
(1596299200.838371) can0 07D#0020000000000000
(1596299200.839354) can0 245#0001400000800093
(1596299200.840296) can0 335#590D00C240000000
(1596299200.843186) can0 301#0400300000000000
(1596299200.844678) can0 102#0000001C80030D3D
(1596299200.848453) can0 4A0#01010000A56AFDB2
(1596299200.849419) can0 310#8C08000000920800
(1596299200.853388) can0 302#4111291C11FFFFFF
(1596299200.855787) can0 07A#0100000000000000
(1596299200.858088) can0 0DF#0100000000000000
(1596299200.859079) can0 230#0000000000120000
(1596299200.860054) can0 440#3207500002648000
(1596299200.861933) can0 2F0#0000100040000000
(1596299200.862907) can0 503#0412000003000000
(1596299200.863898) can0 06C#0008091800000080
(1596299200.864864) can0 0A3#000000E551040040
(1596299200.866141) can0 080#0000030D3DC40505
(1596299200.871894) can0 0F7#026801A880000300
(1596299200.872906) can0 214#0000000000000000
(1596299200.873866) can0 0FD#F3708019E1000000
(1596299200.874809) can0 4B0#84010100008030F1
(1596299200.875808) can0 201#0000000000000000
(1596299200.876775) can0 4C0#0000000000030D3D
(1596299200.878262) can0 4BA#2000000000000000
(1596299200.879260) can0 07D#0020000000000000
(1596299200.883110) can0 07E#003B99200004E024
(1596299200.884051) can0 110#6429D02F00007E04
(1596299200.885000) can0 0B0#17000822E11E0C00
(1596299200.885993) can0 160#0000000008000000
(1596299200.890224) can0 180#3DC8000003830103
(1596299200.893602) can0 06C#0008091800000080
(1596299200.895902) can0 07A#0100000000000000
(1596299200.896910) can0 304#0000000000000000
(1596299200.898399) can0 0DF#0100000000000000
(1596299200.899387) can0 4D0#4000200000000000
(1596299200.904669) can0 0A3#000000C551040040
(1596299200.905622) can0 102#0000001C80030D3D
(1596299200.910986) can0 188#03830CC200000000
(1596299200.915838) can0 080#0000030D3DC40505
(1596299200.918236) can0 07D#0020000000000000
(1596299200.919219) can0 245#0001400000800093
(1596299200.922008) can0 0F7#026801A880000300
(1596299200.923015) can0 214#0000000000000000
(1596299200.924008) can0 06C#0008091800000080
(1596299200.924950) can0 0FD#D3709019E1000000
(1596299200.935151) can0 07E#003B99200004E024
(1596299200.935541) can0 0B0#17000822E11E0C00
(1596299200.936071) can0 07A#0100000000000000
(1596299200.937018) can0 160#0000000008000000
(1596299200.937936) can0 455#7004400091030D3D
(1596299200.938945) can0 0DF#0100000000000000
(1596299200.943207) can0 2A0#2C2F000000030D3D
(1596299200.944148) can0 110#6429D02F00007E04
(1596299200.945115) can0 0A3#000000C551040040
(1596299200.948532) can0 400#1402020200000000
(1596299200.949521) can0 180#3DC8000003830103
(1596299200.950457) can0 405#1248303832393037
(1596299200.953782) can0 06C#0008091800000080
(1596299200.958191) can0 230#0000000000120000
(1596299200.959191) can0 07D#0020000000000000
(1596299200.960150) can0 440#3207500002638000
(1596299200.963317) can0 301#0400300000000000
(1596299200.964617) can0 102#0000001C80030D3D
(1596299200.965617) can0 201#0000000000000000
(1596299200.966575) can0 080#0000030D3DC40505
(1596299200.968655) can0 310#8C08000000920800
(1596299200.969746) can0 504#0502001104000000
(1596299200.972024) can0 0F7#026801A880000300
(1596299200.973034) can0 214#0000000000000000
(1596299200.973977) can0 0FD#A370A819E1000000
(1596299200.975919) can0 07A#0100000000000000
(1596299200.978261) can0 0DF#0100000000000000
(1596299200.979261) can0 4F0#0000000000008000
(1596299200.982069) can0 2F0#0000100040000000
(1596299200.983321) can0 06C#0008091800000080
(1596299200.984290) can0 07E#003B99200004E024
(1596299200.985253) can0 0A3#000000C551040040
(1596299200.986204) can0 0B0#16000822E11E0C00
(1596299200.987206) can0 160#0000000008000000
(1596299200.991528) can0 188#03830CC200000000
(1596299200.993552) can0 330#501B030D3D030D3D
(1596299200.998449) can0 07D#0020000000000000
(1596299200.999422) can0 245#0001400000800093
(1596299201.000374) can0 32A#1F08300020030D3D
(1596299201.003113) can0 110#6429D02F00007E04
(1596299201.008291) can0 180#3DC8000003830103
(1596299201.013553) can0 06C#0008091800000080
(1596299201.015510) can0 080#0000030D3DC48505
(1596299201.016523) can0 07A#0100000000000000
(1596299201.017530) can0 304#0000000000000000
(1596299201.018544) can0 0DF#0100000000000000
(1596299201.021916) can0 0F7#026801A880000300
(1596299201.022929) can0 214#0000000000000000
(1596299201.023888) can0 0FD#8370B819E1000000
(1596299201.024854) can0 0A3#000000C551040040
(1596299201.025812) can0 102#0000001C80030D3D
(1596299201.033356) can0 07E#003B99200004E024
(1596299201.034314) can0 302#4111291C11FFFFFF
(1596299201.035264) can0 0B0#17000822E11E0C00
(1596299201.036255) can0 160#0000000008000000
(1596299201.038175) can0 07D#0020000000000000
(1596299201.043400) can0 06C#0008091800000080
(1596299201.054957) can0 201#0000000000000000
(1596299201.055970) can0 07A#0100000000000000
(1596299201.058183) can0 0DF#0100000000000000
(1596299201.059175) can0 230#0000000000120000
(1596299201.060150) can0 440#3207500002648000
(1596299201.061272) can0 188#03830CC200000000
(1596299201.063109) can0 2A0#2C2F000000030D3D
(1596299201.064053) can0 110#6429D02F00007E04
(1596299201.065019) can0 0A3#000000C551040040
(1596299201.065977) can0 080#0000030D3DC40505
(1596299201.068337) can0 180#3DC8000003830103
(1596299201.071907) can0 0F7#026901A880000300
(1596299201.072919) can0 214#0000000000000000
(1596299201.073910) can0 06C#0008091800000080
(1596299201.074853) can0 0FD#5370D019E1000000
(1596299201.078208) can0 07D#0020000000000000
(1596299201.079189) can0 245#0001400000800093
(1596299201.080416) can0 505#1102000105000000
(1596299201.083233) can0 07E#003B99200004E024
(1596299201.084221) can0 301#0400300000000000
(1596299201.085172) can0 0B0#16000822E11E0C00
(1596299201.086129) can0 102#0000001C80030D3D
(1596299201.087121) can0 160#0000000008000000
(1596299201.091226) can0 310#8C08000000920800
(1596299201.095456) can0 488#0000000000005800
(1596299201.096474) can0 07A#0100000000000000
(1596299201.098305) can0 0DF#0100000000000000
(1596299201.102066) can0 2F0#0000100040000000
(1596299201.103359) can0 06C#0008091800000080
(1596299201.104404) can0 0A3#000000C551040040
(1596299201.106481) can0 45A#0000000000000006
(1596299201.115382) can0 080#0000030D3DC40505
(1596299201.118322) can0 07D#0020000000000000
(1596299201.122026) can0 0F7#026901A880000300
(1596299201.123040) can0 214#0000000000000000
(1596299201.123982) can0 0FD#3370E019E1000000
(1596299201.124925) can0 110#6429D02F00007E04
(1596299201.128668) can0 180#3DC8000003830103
(1596299201.133709) can0 06C#0008091800000080
(1596299201.134675) can0 07E#003B99200004E024
(1596299201.135626) can0 0B0#16000822E11E0C00
(1596299201.136641) can0 07A#0100000000000000
(1596299201.137632) can0 160#0000000008000000
(1596299201.138638) can0 0DF#0100000000000000
(1596299201.139615) can0 188#03830CC200000000
(1596299201.140621) can0 304#0000000000000000
(1596299201.141555) can0 335#590D00C21A000000
(1596299201.144381) can0 0A3#000000E551040040
(1596299201.145339) can0 102#0000001C80030D3D
(1596299201.146336) can0 201#0000000000000000
(1596299201.158141) can0 230#0000000000120000
(1596299201.159136) can0 07D#0020000000000000
(1596299201.160120) can0 245#0001400000800093
(1596299201.161098) can0 440#3207500002648000
(1596299201.162068) can0 46B#0DFFFFFFFFFFFF30
(1596299201.163067) can0 4F0#0000000000008000
(1596299201.164058) can0 06C#0008091800000080
(1596299201.165230) can0 080#0000030D3DC40505
(1596299201.172019) can0 0F7#026901A880000300
(1596299201.173030) can0 214#0000000000000000
(1596299201.173990) can0 0FD#0370F819E1000000
(1596299201.175915) can0 07A#0100000000000000
(1596299201.178465) can0 0DF#0100000000000000
(1596299201.183147) can0 2A0#2C2F000000030D3D
(1596299201.184112) can0 07E#003B99200004E024
(1596299201.185078) can0 0A3#000000C551040040
(1596299201.186028) can0 0B0#16000822E11E0C00
(1596299201.186969) can0 110#6429D02F00007E04
(1596299201.194093) can0 160#0000000008000000
(1596299201.194517) can0 180#3DC8000003830103
(1596299201.195172) can0 511#4712000105000000
(1596299201.198215) can0 07D#0020000000000000
(1596299201.203196) can0 400#1500000002020002
(1596299201.204182) can0 301#0400300000000000
(1596299201.205140) can0 102#0000001C80030D3D
(1596299201.206076) can0 405#0166562111D403EF
(1596299201.207035) can0 490#04007936CC128000
(1596299201.208595) can0 310#8C08000000920800
(1596299201.211611) can0 188#03830CC200000000
(1596299201.213558) can0 302#4111291C11FFFFFF
(1596299201.215058) can0 080#0000030D3DC40505
(1596299201.216075) can0 07A#0100000000000000
(1596299201.218041) can0 0DF#0100000000000000
(1596299201.218958) can0 330#501B030D3D030D3D
(1596299201.221921) can0 0F7#026901A880000300
(1596299201.222934) can0 214#0000000000000000
(1596299201.223947) can0 06C#0008091800000080
(1596299201.224891) can0 0A3#000000C551040040
(1596299201.225834) can0 0FD#E3708819E1000000
(1596299201.226825) can0 2F0#0000100040000000
(1596299201.227778) can0 32A#1F20300020030D3D
(1596299201.228726) can0 48A#A880000264C00080
(1596299201.233486) can0 07E#003B99200004E024
(1596299201.234939) can0 0B0#16000822E11E0C00
(1596299201.235929) can0 160#0000000008000000
(1596299201.236927) can0 201#0000000000000000
(1596299201.237847) can0 455#7004400091030D3D
(1596299201.238845) can0 07D#0020000000000000
(1596299201.239828) can0 245#0001400000800093
(1596299201.240798) can0 496#C0523C3E00000000
(1596299201.243160) can0 110#6429D02F00007E04
(1596299201.248324) can0 180#3DC8000003830103
(1596299201.253533) can0 06C#0008091800000080
(1596299201.255784) can0 07A#0100000000000000
(1596299201.256791) can0 304#0000000000000000
(1596299201.258102) can0 0DF#0100000000000000
(1596299201.259093) can0 230#0000000000120000
(1596299201.260069) can0 440#3207500002648000
(1596299201.264131) can0 0A3#000000C551040040
(1596299201.265082) can0 080#0000030D3DC40505
(1596299201.266043) can0 102#0000001C80030D3D
(1596299201.271916) can0 0F7#026901A880000300
(1596299201.272927) can0 214#0000000000000000
(1596299201.273862) can0 0FD#B370A019E1000000
(1596299201.278156) can0 07D#0020000000000000
(1596299201.283181) can0 06C#0008091800000080
(1596299201.284147) can0 07E#003B99200004E024
(1596299201.285096) can0 0B0#16000822E11E0C00
(1596299201.286088) can0 160#0000000008000000
(1596299201.287065) can0 188#03830CC200000000
(1596299201.299233) can0 07A#0100000000000000
(1596299201.299766) can0 0DF#0100000000000000
(1596299201.300870) can0 547#0112000047000000
(1596299201.303191) can0 2A0#2C2F000000030D3D
(1596299201.304157) can0 0A3#000000C551040040
(1596299201.305100) can0 110#6429D02F00007E04
(1596299201.308412) can0 180#3DC8000003830103
(1596299201.313900) can0 06C#0008091800000080
(1596299201.314878) can0 080#0000030D3DC40505
(1596299201.318182) can0 07D#0020000000000000
(1596299201.319166) can0 245#0001400000800093
(1596299201.322033) can0 0F7#026901A880000300
(1596299201.323043) can0 214#0000000000000000
(1596299201.323977) can0 0FD#9370B019E1000000
(1596299201.324936) can0 102#0000001C80030D3D
(1596299201.325934) can0 201#0000000000000000
(1596299201.326925) can0 301#0400300000000000
(1596299201.328676) can0 310#8C08000000920800
(1596299201.333459) can0 07E#003B99200004E024
(1596299201.335050) can0 0B0#16000822E11E0C00
(1596299201.336064) can0 07A#0100000000000000
(1596299201.337054) can0 160#0000000008000000
(1596299201.338220) can0 0DF#0100000000000000
(1596299201.339221) can0 4F0#0000000000008000
(1596299201.342095) can0 2F0#0000100040000000
(1596299201.343362) can0 06C#0008091800000080
(1596299201.344328) can0 0A3#000000C551040040
(1596299201.358390) can0 230#0000000000120000
(1596299201.359385) can0 07D#0020000000000000
(1596299201.360359) can0 440#3207500002648000
(1596299201.362077) can0 188#03830CC200000000
(1596299201.363280) can0 110#6429D02F00007E04
(1596299201.365036) can0 080#0000030D3DC40505
