(1676143421.347127) can0 45A#0000000000000006
(1676143421.353000) can0 0B0#E1000822FD020C00
(1676143421.359440) can0 0F7#021A01C080910300
(1676143421.359858) can0 214#0000000000000000
(1676143421.360291) can0 0DF#0100000000000000
(1676143421.362159) can0 188#0301000000000000
(1676143421.363153) can0 201#0000000000000000
(1676143421.364796) can0 2A0#2D2F00000003C315
(1676143421.365710) can0 0FD#E3708819E1000000
(1676143421.366668) can0 110#442902FD4000BF04
(1676143421.369501) can0 180#3DD8000003830104
(1676143421.370516) can0 07A#0100000000000000
(1676143421.371522) can0 304#0000000000000000
(1676143421.374931) can0 0A3#000000E111040040
(1676143421.375908) can0 06C#0008171800000080
(1676143421.376862) can0 07E#003B9D62EC04E020
(1676143421.377843) can0 102#0000001C8003C315
(1676143421.379976) can0 07D#0020000000000000
(1676143421.380968) can0 160#0000000008000000
(1676143421.381955) can0 080#000003C315C10505
(1676143421.384573) can0 301#0400300000000000
(1676143421.385916) can0 505#1102000105000000
(1676143421.389569) can0 310#8C08000000920800
(1676143421.398257) can0 2F0#0000100047B20000
(1676143421.399712) can0 0DF#0100000000000000
(1676143421.400682) can0 230#0000000000120000
(1676143421.401640) can0 440#3207500002258000
(1676143421.402638) can0 4F0#0000000000008000
(1676143421.403585) can0 0B0#E1000822FD020C00
(1676143421.404803) can0 06C#0008171800000080
(1676143421.408311) can0 0F7#021A01C080910300
(1676143421.409220) can0 214#0000000000000000
(1676143421.410247) can0 07A#0100000000000000
(1676143421.414875) can0 0A3#000000C111040040
(1676143421.415796) can0 0FD#B370A019E1000000
(1676143421.419972) can0 07D#0020000000000000
(1676143421.420873) can0 245#0001400000800093
(1676143421.424764) can0 07E#003B9D62EF04E020
(1676143421.425688) can0 110#442902FD4000BF04
(1676143421.429626) can0 180#3DD8000003830104
(1676143421.430600) can0 160#0000000008000000
(1676143421.431563) can0 080#000003C315C10505
(1676143421.432508) can0 335#590D00C203000000
(1676143421.434901) can0 102#0000001C8003C315
(1676143421.435873) can0 06C#0008171800000080
(1676143421.437365) can0 188#0301000000000000
(1676143421.439723) can0 0DF#0100000000000000
(1676143421.444418) can0 490#0C005E28CC018009
(1676143421.450239) can0 07A#0100000000000000
(1676143421.453007) can0 0B0#E1000822FD020C00
(1676143421.454010) can0 201#0000000000000000
(1676143421.455428) can0 0A3#000000C111040040
(1676143421.456404) can0 302#41001C1713FFFFFF
(1676143421.457339) can0 455#700440008D03C315
(1676143421.458277) can0 0F7#021A01C080910300
(1676143421.459277) can0 214#0000000000000000
(1676143421.460286) can0 07D#0020000000000000
(1676143421.461259) can0 330#500303C31503C315
(1676143421.462210) can0 400#2200000000000000
(1676143421.463146) can0 405#023831003803C315
(1676143421.464074) can0 48A#9180848224C00080
(1676143421.465081) can0 06C#0008171800000080
(1676143421.467612) can0 0FD#9370B019E1000000
(1676143421.467851) can0 32A#1F2030260003C315
(1676143421.474788) can0 07E#003B9D62EC04E020
(1676143421.479757) can0 0DF#0100000000000000
(1676143421.480741) can0 160#0000000008000000
(1676143421.481726) can0 080#000003C315C10505
(1676143421.484530) can0 2A0#2D2F00000003C315
(1676143421.485487) can0 110#442902FD4000BF04
(1676143421.489390) can0 180#3DD8000003830104
(1676143421.490394) can0 07A#0100000000000000
(1676143421.491410) can0 304#0000000000000000
(1676143421.492920) can0 511#4712000105000000
(1676143421.494676) can0 0A3#000000C111040040
(1676143421.495659) can0 06C#0008171800000080
(1676143421.496624) can0 102#0000001C8003C315
(1676143421.499584) can0 230#0000000000120000
(1676143421.500568) can0 07D#0020000000000000
(1676143421.501551) can0 245#0001400000800093
(1676143421.502512) can0 440#3207500002258000
(1676143421.503469) can0 0B0#E1000822FD020C00
(1676143421.504476) can0 301#0400300000000000
(1676143421.508107) can0 0F7#021A01C080910300
(1676143421.509143) can0 214#0000000000000000
(1676143421.510080) can0 310#8C08000000920800
(1676143421.512451) can0 188#0301000000000000
(1676143421.514855) can0 0FD#6370C819E1000000
(1676143421.518148) can0 2F0#0000100047B20000
(1676143421.519604) can0 0DF#0100000000000000
(1676143421.524536) can0 06C#0008171800000080
(1676143421.525481) can0 07E#003B9D62EE04E020
(1676143421.530139) can0 07A#0100000000000000
(1676143421.531125) can0 080#000003C315C10505
(1676143421.532116) can0 160#0000000008000000
(1676143421.534608) can0 0A3#000000C111040040
(1676143421.539763) can0 07D#0020000000000000
(1676143421.542940) can0 201#0000000000000000
(1676143421.546200) can0 110#442902FD4000BF04
(1676143421.549524) can0 180#3DD8000003830104
(1676143421.552895) can0 0B0#E1000822FD020C00
(1676143421.554579) can0 102#0000001C8003C315
(1676143421.555562) can0 06C#0008171800000080
(1676143421.558092) can0 0F7#021A01C080910300
(1676143421.559107) can0 214#0000000000000000
(1676143421.560118) can0 0DF#0100000000000000
(1676143421.564403) can0 0FD#4370D819E1000000
(1676143421.570216) can0 07A#0100000000000000
(1676143421.574622) can0 0A3#000000C111040040
(1676143421.575559) can0 07E#003B9D62ED04E020
(1676143421.579662) can0 46B#0CFFFFFFFFFFFFB0
(1676143421.580655) can0 07D#0020000000000000
(1676143421.581643) can0 080#000003C315C10505
(1676143421.582633) can0 160#0000000008000000
(1676143421.583616) can0 245#0001400000800093
(1676143421.584618) can0 4F0#0000000000008000
(1676143421.585598) can0 06C#0008171800000080
(1676143421.587779) can0 188#0301000000000000
(1676143421.595197) can0 547#0112000047000000
(1676143421.599923) can0 0DF#0100000000000000
(1676143421.600889) can0 230#0000000000120000
(1676143421.601845) can0 440#3207500002258000
(1676143421.603049) can0 0B0#E1000822FD020C00
(1676143421.604914) can0 2A0#2D2F00000003C315
(1676143421.605786) can0 110#442902FD4000BF04
(1676143421.608214) can0 0F7#021A01C080910300
(1676143421.609225) can0 214#0000000000000000
(1676143421.610217) can0 180#3DD8000003830104
(1676143421.611272) can0 07A#0100000000000000
(1676143421.612238) can0 304#0000000000000000
(1676143421.614589) can0 0A3#000000C111040040
(1676143421.615561) can0 06C#0008171800000080
(1676143421.616511) can0 0FD#1370F019E1000000
(1676143421.617481) can0 102#0000001C8003C315
(1676143421.619756) can0 07D#0020000000000000
(1676143421.624431) can0 07E#003B9D62ED04E020
(1676143421.625420) can0 301#0400300000000000
(1676143421.629657) can0 310#8C08000000920800
(1676143421.630624) can0 080#000003C315C18505
(1676143421.631613) can0 160#0000000008000000
(1676143421.632610) can0 488#0000000000005800
(1676143421.633616) can0 201#0000000000000000
(1676143421.634990) can0 302#41011C1713FFFFFF
(1676143421.638236) can0 2F0#0000100047B20000
(1676143421.639913) can0 0DF#0100000000000000
(1676143421.644714) can0 06C#0008171800000080
(1676143421.650210) can0 07A#0100000000000000
(1676143421.653012) can0 0B0#E2000822FD020C00
(1676143421.654525) can0 0A3#000000C111040040
(1676143421.658211) can0 0F7#021A01C080910300
(1676143421.659212) can0 214#0000000000000000
(1676143421.660216) can0 07D#0020000000000000
(1676143421.661195) can0 245#0001400000800093
(1676143421.662951) can0 188#0301000000000000
(1676143421.664570) can0 0FD#F3708019E1000000
(1676143421.665515) can0 110#442902FD4000BF04
(1676143421.669568) can0 180#3DD8000003830104
(1676143421.674367) can0 102#0000001C8003C315
(1676143421.675347) can0 06C#0008171800000080
(1676143421.676294) can0 07E#003B9D62EE04E020
(1676143421.679865) can0 0DF#0100000000000000
(1676143421.680847) can0 080#000003C315C10505
(1676143421.681918) can0 160#0000000008000000
(1676143421.684482) can0 330#500303C31503C315
(1676143421.689709) can0 32A#1F2830260003C315
(1676143421.690726) can0 07A#0100000000000000
(1676143421.694454) can0 0A3#000000E111040040
(1676143421.699624) can0 230#0000000000120000
(1676143421.700621) can0 07D#0020000000000000
(1676143421.701577) can0 440#3207500002258000
(1676143421.703025) can0 0B0#E1000822FD020C00
(1676143421.704738) can0 06C#0008171800000080
(1676143421.705710) can0 501#0302004101000000
(1676143421.708079) can0 45A#0000000000000006
(1676143421.709004) can0 0F7#021A01C080910300
(1676143421.710033) can0 214#0000000000000000
(1676143421.715024) can0 400#2300000000000000
(1676143421.715961) can0 0FD#C3709819E1000000
(1676143421.716948) can0 405#2600000000000000
(1676143421.719925) can0 0DF#0100000000000000
(1676143421.723062) can0 201#0000000000000000
(1676143421.724534) can0 2A0#2D2F00000003C315
(1676143421.725477) can0 07E#003B9D62EF04E020
(1676143421.726429) can0 110#442902FD4000BF04
(1676143421.729616) can0 180#3DD8000003830104
(1676143421.730620) can0 07A#0100000000000000
(1676143421.731609) can0 080#000003C315C10505
(1676143421.732599) can0 160#0000000008000000
(1676143421.733606) can0 304#0000000000000000
(1676143421.734585) can0 0A3#000000C111040040
(1676143421.735552) can0 06C#0008171800000080
(1676143421.736520) can0 102#0000001C8003C315
(1676143421.737470) can0 335#590D00C203000000
(1676143421.738469) can0 188#0301000000000000
(1676143421.739952) can0 07D#0020000000000000
(1676143421.740939) can0 245#0001400000800093
(1676143421.744539) can0 301#0400300000000000
(1676143421.749594) can0 310#8C08000000920800
(1676143421.753015) can0 0B0#E1000822FD020C00
(1676143421.753937) can0 455#700440008D03C315
(1676143421.754884) can0 496#C02D3C5F00000000
(1676143421.758207) can0 0F7#021A01C080910300
(1676143421.759211) can0 214#0000000000000000
(1676143421.760291) can0 0DF#0100000000000000
(1676143421.761192) can0 2F0#0000300047B20000
(1676143421.762185) can0 4F0#0000000000008000
(1676143421.764659) can0 06C#0008171800000080
(1676143421.765601) can0 0FD#A370A819E1000000
(1676143421.770219) can0 07A#0100000000000000
(1676143421.774345) can0 0A3#000000C111040040
(1676143421.775287) can0 07E#003B9D62EE04E020
(1676143421.780034) can0 07D#0020000000000000
(1676143421.781020) can0 080#000003C315C10505
(1676143421.782010) can0 160#0000000008000000
(1676143421.784691) can0 110#442902FD4000BF04
(1676143421.789532) can0 180#3DD8000003830104
(1676143421.794321) can0 102#0000001C8003C315
(1676143421.795327) can0 06C#0008171800000080
(1676143421.799698) can0 0DF#0100000000000000
(1676143421.800684) can0 230#0000000000120000
(1676143421.801646) can0 440#3207500002258000
(1676143421.803018) can0 0B0#E1000822FD020C00
(1676143421.808212) can0 0F7#021A01C080910300
(1676143421.809222) can0 214#0000000000000000
(1676143421.810234) can0 07A#0100000000000000
(1676143421.813074) can0 201#0000000000000000
(1676143421.814066) can0 188#0301000000000000
(1676143421.815029) can0 0A3#000000C111040040
(1676143421.815971) can0 0FD#7370C019E1000000
(1676143421.816930) can0 302#41011C1713FFFFFF
(1676143421.818281) can0 503#0412000003000000
(1676143421.819755) can0 07D#0020000000000000
(1676143421.820736) can0 245#0001400000800093
(1676143421.824694) can0 06C#0008171800000080
(1676143421.825638) can0 07E#003B9D62EE04E020
(1676143421.829727) can0 080#000003C315C10505
(1676143421.830715) can0 160#0000000008000000
(1676143421.839921) can0 0DF#0100000000000000
(1676143421.844436) can0 2A0#2D2F00000003C315
(1676143421.845375) can0 110#442902FD4000BF04
(1676143421.849531) can0 180#3DD8000003830104
(1676143421.850549) can0 07A#0100000000000000
(1676143421.851545) can0 304#0000000000000000
(1676143421.853029) can0 0B0#E1000822FD020C00
(1676143421.854301) can0 0A3#000000C111040040
(1676143421.855313) can0 06C#0008171800000080
(1676143421.856203) can0 102#0000001C8003C315
(1676143421.858218) can0 0F7#021A01C080910300
(1676143421.859249) can0 214#0000000000000000
(1676143421.860234) can0 07D#0020000000000000
(1676143421.864539) can0 0FD#5370D019E1000000
(1676143421.865528) can0 301#0400300000000000
(1676143421.873099) can0 310#8C08000000920800
(1676143421.874983) can0 07E#003B9D62ED04E020
(1676143421.878350) can0 2F0#0000100047B20000
(1676143421.879716) can0 080#000003C315C10505
(1676143421.880725) can0 0DF#0100000000000000
(1676143421.881712) can0 160#0000000008000000
(1676143421.884746) can0 06C#0008171800000080
(1676143421.888668) can0 188#0301000000000000
(1676143421.890312) can0 07A#0100000000000000
(1676143421.894289) can0 0A3#000000C111040040
(1676143421.895225) can0 490#0C005E28CC008009
(1676143421.899970) can0 230#0000000000120000
(1676143421.900968) can0 07D#0020000000000000
(1676143421.901952) can0 245#0001400000800093
(1676143421.902965) can0 440#3207500002258000
(1676143421.903875) can0 0B0#E2000822FD020C00
(1676143421.904818) can0 110#442902FD4000BF04
(1676143421.905842) can0 201#0000000000000000
(1676143421.908337) can0 0F7#021A01C080910300
(1676143421.909459) can0 214#0000000000000000
(1676143421.910357) can0 180#3DD8000003830104
(1676143421.911271) can0 330#500303C31503C315
(1676143421.912212) can0 48A#9180840224C00080
(1676143421.914295) can0 102#0000001C8003C315
(1676143421.915535) can0 06C#0008171800000080
(1676143421.916479) can0 0FD#2370E819E1000000
(1676143421.917446) can0 32A#1F2830260003C315
(1676143421.919928) can0 0DF#0100000000000000
(1676143421.924590) can0 07E#003B9D62EE04E020
(1676143421.929253) can0 504#0502000104000000
(1676143421.930244) can0 080#000003C315C10505
(1676143421.931257) can0 07A#0100000000000000
(1676143421.932249) can0 160#0000000008000000
(1676143421.934264) can0 0A3#000000C111040040
(1676143421.939756) can0 46B#0DFFFFFFFFFFFFB0
(1676143421.940753) can0 07D#0020000000000000
(1676143421.941755) can0 4F0#0000000000008000
(1676143421.944658) can0 06C#0008171800000080
(1676143421.953127) can0 0B0#E1000822FD020C00
(1676143421.958350) can0 0F7#021A01C080910300
(1676143421.959358) can0 214#0000000000000000
(1676143421.960378) can0 0DF#0100000000000000
(1676143421.961372) can0 400#2400000000000000
(1676143421.962477) can0 405#2700000000000000
(1676143421.963895) can0 188#0301000000000000
(1676143421.964847) can0 0FD#0370F819E1000000
(1676143421.965798) can0 110#442902FD4000BF04
(1676143421.966765) can0 2A0#2D2F00000003C315
(1676143421.973347) can0 180#3DD8000003830104
(1676143421.973775) can0 07A#0100000000000000
(1676143421.974468) can0 0A3#000000E111040040
(1676143421.975028) can0 102#0000001C8003C315
(1676143421.976015) can0 06C#0008171800000080
(1676143421.976966) can0 07E#003B9D62EE04E020
(1676143421.979383) can0 080#000003C315C10505
(1676143421.980382) can0 07D#0020000000000000
(1676143421.981375) can0 160#0000000008000000
(1676143421.982357) can0 245#0001400000800093
(1676143421.984536) can0 301#0400300000000000
(1676143421.989288) can0 488#0000000000005800
(1676143421.990252) can0 310#8C08000000920800
(1676143421.991209) can0 4A0#01010000A616FD0F
(1676143421.993076) can0 201#0000000000000000
(1676143421.994043) can0 4C0#000000000003C315
(1676143421.994996) can0 302#41011C1713FFFFFF
(1676143421.998332) can0 2F0#0000100047B20000
(1676143421.999834) can0 0DF#0100000000000000
(1676143422.000832) can0 230#0000000000120000
(1676143422.001786) can0 440#3207500002258000
(1676143422.003072) can0 0B0#E2000822FD020C00
(1676143422.004780) can0 06C#0008171800000080
(1676143422.008231) can0 0F7#021A01C080910300
(1676143422.009244) can0 214#0000000000000000
(1676143422.010333) can0 07A#0100000000000000
(1676143422.014033) can0 0A3#000000C111040040
(1676143422.015020) can0 4B0#04010100008030F4
(1676143422.015964) can0 0FD#D3709019E1000000
(1676143422.019947) can0 4BA#2000000000000000
(1676143422.020954) can0 07D#0020000000000000
(1676143422.024425) can0 07E#003B9D62ED04E020
(1676143422.025367) can0 110#442902FD4000BF04
(1676143422.029196) can0 080#000003C315C10505
(1676143422.030180) can0 180#3DD8000003830104
(1676143422.031171) can0 160#0000000008000000
(1676143422.032107) can0 335#590D00C21A000000
(1676143422.034035) can0 102#0000001C8003C315
(1676143422.035010) can0 505#1102000105000000
(1676143422.035994) can0 06C#0008171800000080
(1676143422.038955) can0 188#0301000000000000
(1676143422.039962) can0 0DF#0100000000000000
(1676143422.040952) can0 4D0#4000200000000000
(1676143422.050184) can0 07A#0100000000000000
(1676143422.053034) can0 0B0#E1000822FD020C00
(1676143422.053997) can0 0A3#000000C111040040
(1676143422.054920) can0 455#700440008D03C315
(1676143422.058271) can0 0F7#021A01C080910300
(1676143422.059238) can0 214#0000000000000000
(1676143422.060236) can0 07D#0020000000000000
(1676143422.061221) can0 245#0001400000800093
(1676143422.064639) can0 06C#0008171800000080
(1676143422.065565) can0 0FD#B370A019E1000000
(1676143422.069039) can0 45A#0000000000000006
(1676143422.074862) can0 07E#003B9D62F104E020
(1676143422.078916) can0 080#000003C315C10505
(1676143422.080001) can0 0DF#0100000000000000
(1676143422.080994) can0 160#0000000008000000
(1676143422.083096) can0 201#0000000000000000
(1676143422.084511) can0 2A0#2D2F00000003C315
(1676143422.085462) can0 110#442902FD4000BF04
(1676143422.089622) can0 180#3DD8000003830104
(1676143422.090642) can0 07A#0100000000000000
(1676143422.091643) can0 304#0000000000000000
(1676143422.093950) can0 0A3#000000C111040040
(1676143422.094877) can0 102#0000001C8003C315
(1676143422.095858) can0 06C#0008171800000080
(1676143422.099778) can0 230#0000000000120000
(1676143422.100776) can0 07D#0020000000000000
(1676143422.101737) can0 440#3207500002258000
(1676143422.103080) can0 0B0#E1000822FD020C00
(1676143422.104587) can0 301#0400300000000000
(1676143422.108230) can0 0F7#021A01C080910300
(1676143422.109244) can0 214#0000000000000000
(1676143422.110211) can0 310#8C08000000920800
(1676143422.114180) can0 188#0301000000000000
(1676143422.115110) can0 0FD#8370B819E1000000
(1676143422.118276) can0 2F0#0000100047B20000
(1676143422.119706) can0 0DF#0100000000000000
(1676143422.120706) can0 4F0#0000000000008000
(1676143422.124569) can0 06C#0008171800000080
(1676143422.125513) can0 07E#003B9D62EF04E020
(1676143422.128954) can0 080#000003C315C18505
(1676143422.130229) can0 07A#0100000000000000
(1676143422.131220) can0 160#0000000008000000
(1676143422.133880) can0 0A3#000000C111040040
(1676143422.135089) can0 330#500303C31503C315
(1676143422.139960) can0 07D#0020000000000000
(1676143422.140955) can0 245#0001400000800093
(1676143422.141894) can0 32A#1F0030270003C315
(1676143422.143077) can0 511#4712000105000000
(1676143422.144675) can0 110#442902FD4000BF04
(1676143422.149547) can0 180#3DD8000003830104
(1676143422.153034) can0 0B0#E1000822FD020C00
(1676143422.153998) can0 102#0000001C8003C315
(1676143422.155212) can0 06C#0008171800000080
(1676143422.158227) can0 0F7#021A01C080910300
(1676143422.159251) can0 214#0000000000000000
(1676143422.160248) can0 0DF#0100000000000000
(1676143422.164544) can0 0FD#6370C819E1000000
(1676143422.173631) can0 07A#0100000000000000
(1676143422.174173) can0 0A3#000000C111040040
(1676143422.174562) can0 201#0000000000000000
(1676143422.175382) can0 07E#003B9D62EF04E020
(1676143422.176080) can0 302#41001C1713FFFFFF
(1676143422.178913) can0 080#000003C315C10505
(1676143422.179991) can0 07D#0020000000000000
(1676143422.180981) can0 160#0000000008000000
(1676143422.184822) can0 06C#0008171800000080
(1676143422.189479) can0 188#0301000000000000
(1676143422.199943) can0 0DF#0100000000000000
(1676143422.201012) can0 230#0000000000120000
(1676143422.201888) can0 440#3207500002258000
(1676143422.203192) can0 0B0#E1000822FD020C00
(1676143422.204690) can0 2A0#2D2F00000003C315
(1676143422.205639) can0 110#442902FD4000BF04
(1676143422.208344) can0 0F7#021A01C080910300
(1676143422.209357) can0 214#0000000000000000
(1676143422.210372) can0 07A#0100000000000000
(1676143422.211363) can0 180#3DD8000003830104
(1676143422.212372) can0 304#0000000000000000
(1676143422.213772) can0 0A3#000000C111040040
(1676143422.214736) can0 102#0000001C8003C315
(1676143422.215742) can0 06C#00081C1800000080
(1676143422.216684) can0 0FD#3370E019E1000000
(1676143422.217645) can0 400#0108020201310202
(1676143422.218588) can0 405#016741799963FC10
(1676143422.219977) can0 07D#0020000000000000
(1676143422.220961) can0 245#0001400000800093
(1676143422.224552) can0 07E#003B9D62F004E020
(1676143422.225534) can0 301#0400300000000000
(1676143422.228645) can0 080#000003C315C10505
(1676143422.229908) can0 310#8C08000000920800
(1676143422.230898) can0 160#0000000008000000
(1676143422.238372) can0 2F0#0000100047B20000
(1676143422.239787) can0 0DF#0100000000000000
(1676143422.244704) can0 06C#0008171800000080
(1676143422.245665) can0 547#0112000047000000
(1676143422.250280) can0 07A#0100000000000000
(1676143422.253141) can0 0B0#E2000822FD020C00
(1676143422.254114) can0 0A3#000000C111040040
(1676143422.258357) can0 0F7#021A01C080910300
(1676143422.259367) can0 214#0000000000000000
(1676143422.260359) can0 07D#0020000000000000
(1676143422.263199) can0 201#0000000000000000
(1676143422.264655) can0 188#0301000000000000
(1676143422.265597) can0 0FD#1370F019E1000000
(1676143422.266548) can0 110#442902FD4000BF04
(1676143422.269676) can0 180#3DD8000003830104
(1676143422.274109) can0 102#0000001C8003C315
(1676143422.275260) can0 06C#0008171800000080
(1676143422.276208) can0 07E#003B9D62EE04E020
(1676143422.278817) can0 080#000003C315C10505
(1676143422.279887) can0 0DF#0100000000000000
(1676143422.280878) can0 160#0000000008000000
(1676143422.290169) can0 07A#0100000000000000
(1676143422.293593) can0 0A3#000000E111040040
(1676143422.299637) can0 230#0000000000120000
(1676143422.300628) can0 07D#0020000000000000
(1676143422.301612) can0 245#0001400000800093
(1676143422.302573) can0 440#3207500002258000
(1676143422.303530) can0 0B0#E1000822FD020C00
(1676143422.304509) can0 46B#0DFFFFFFFFFFFF30
(1676143422.305505) can0 06C#0008171800000080
(1676143422.306484) can0 4F0#0000000000008000
(1676143422.308253) can0 0F7#021A01C080910300
(1676143422.309272) can0 214#0000000000000000
(1676143422.315113) can0 0FD#E3708819E1000000
(1676143422.319902) can0 0DF#0100000000000000
(1676143422.324647) can0 2A0#2D2F00000003C315
(1676143422.325604) can0 07E#003B9D62EF04E020
(1676143422.326547) can0 110#442902FD4000BF04
(1676143422.328414) can0 080#000003C315C10505
(1676143422.329615) can0 180#3DD8000003830104
(1676143422.330628) can0 07A#0100000000000000
(1676143422.331617) can0 160#0000000008000000
(1676143422.332624) can0 304#0000000000000000
(1676143422.333576) can0 335#590D00C21A000000
(1676143422.334531) can0 0A3#000000C111040040
(1676143422.335532) can0 06C#00081C1800000080
(1676143422.336496) can0 102#0000001C8003C315
(1676143422.339713) can0 07D#0020000000000000
(1676143422.340706) can0 188#0301000000000000
(1676143422.344433) can0 490#0C005E28CC008009
(1676143422.345419) can0 301#0400300000000000
(1676143422.348389) can0 488#0000000000005800
(1676143422.349634) can0 310#8C08000000920800
(1676143422.353036) can0 0B0#E2000822FD020C00
(1676143422.354037) can0 201#0000000000000000
(1676143422.354961) can0 455#700440008D03C315
(1676143422.355941) can0 302#41011D1713FFFFFF
(1676143422.356880) can0 496#C02D3C6000000000
(1676143422.357862) can0 501#0302004101000000
(1676143422.358802) can0 0F7#021A01C080910300
(1676143422.359805) can0 0DF#0100000000000000
(1676143422.360820) can0 214#0000000000000000
(1676143422.361785) can0 2F0#0000100047B20000
(1676143422.362711) can0 330#500303C31503C315
(1676143422.363656) can0 48A#9180840224C00080
(1676143422.364897) can0 06C#0008171800000080
(1676143422.365842) can0 0FD#C3709819E1000000
(1676143422.366780) can0 32A#1F2830270003C315
(1676143422.370206) can0 07A#0100000000000000
(1676143422.373511) can0 0A3#000000C111040040
(1676143422.374879) can0 07E#003B9D62EF04E020
(1676143422.378316) can0 080#000003C315C10505
(1676143422.380043) can0 07D#0020000000000000
(1676143422.381026) can0 160#0000000008000000
(1676143422.382008) can0 245#0001400000800093
(1676143422.384485) can0 110#442902FD4000BF04
(1676143422.389490) can0 180#3DD8000003830104
(1676143422.393494) can0 102#0000001C8003C315
(1676143422.394987) can0 06C#0008171800000080
(1676143422.399730) can0 0DF#0100000000000000
(1676143422.400685) can0 230#0000000000120000
(1676143422.401662) can0 440#3207500002258000
(1676143422.403063) can0 0B0#E1000822FD020C00
(1676143422.408356) can0 0F7#021A01C080910300
(1676143422.409266) can0 214#0000000000000000
(1676143422.410307) can0 07A#0100000000000000
(1676143422.414054) can0 0A3#000000C111040040
(1676143422.414955) can0 188#0301000000000000
(1676143422.415863) can0 0FD#9370B019E1000000
(1676143422.419763) can0 07D#0020000000000000
(1676143422.424587) can0 06C#0008171800000080
(1676143422.425500) can0 07E#003B9D62EE04E020
(1676143422.428151) can0 080#000003C315C10505
(1676143422.429995) can0 45A#0000000000000006
(1676143422.430986) can0 160#0000000008000000
(1676143422.439838) can0 0DF#0100000000000000
(1676143422.443088) can0 201#0000000000000000
(1676143422.444533) can0 2A0#2D2F00000003C315
(1676143422.445472) can0 110#442902FD4000BF04
(1676143422.449504) can0 180#3DD8000003830104
(1676143422.450518) can0 07A#0100000000000000
(1676143422.451525) can0 304#0000000000000000
(1676143422.453043) can0 0B0#E1000822FD020C00
(1676143422.454009) can0 0A3#000000C111040040
(1676143422.455004) can0 102#0000001C8003C315
(1676143422.455958) can0 06C#0008171800000080
(1676143422.458243) can0 0F7#021A01C080910300
(1676143422.459259) can0 214#0000000000000000
(1676143422.460258) can0 07D#0020000000000000
(1676143422.461323) can0 245#0001400000800093
(1676143422.462216) can0 400#0202020104040002
(1676143422.463160) can0 405#023831003803C315
(1676143422.464567) can0 0FD#7370C019E1000000
(1676143422.465558) can0 301#0400300000000000
(1676143422.468294) can0 503#0412000003000000
(1676143422.469670) can0 310#8C08000000920800
(1676143422.474800) can0 07E#003B9D62F004E020
(1676143422.478098) can0 080#000003C315C10505
(1676143422.479065) can0 2F0#0000100047B20000
(1676143422.480073) can0 0DF#0100000000000000
(1676143422.481064) can0 160#0000000008000000
(1676143422.482063) can0 4F0#0000000000008000
(1676143422.484615) can0 06C#0008171800000080
(1676143422.490162) can0 07A#0100000000000000
(1676143422.491185) can0 188#0301000000000000
(1676143422.493335) can0 0A3#000000C111040040
(1676143422.499977) can0 230#0000000000120000
(1676143422.500974) can0 07D#0020000000000000
(1676143422.501933) can0 440#3207500002258000
(1676143422.503083) can0 0B0#E1000822FD020C00
(1676143422.504603) can0 110#442902FD4000BF04
(1676143422.508250) can0 0F7#021A01C080910300
(1676143422.509310) can0 214#0000000000000000
(1676143422.510253) can0 180#3DD8000003830104
(1676143422.513331) can0 102#0000001C8003C315
(1676143422.515189) can0 06C#0008171800000080
(1676143422.516118) can0 0FD#4370D819E1000000
(1676143422.519673) can0 0DF#0100000000000000
(1676143422.524452) can0 07E#003B9D62F004E020
(1676143422.527872) can0 080#000003C315C10505
(1676143422.530196) can0 07A#0100000000000000
(1676143422.531187) can0 160#0000000008000000
(1676143422.533114) can0 201#0000000000000000
(1676143422.534082) can0 0A3#000000C111040040
(1676143422.535028) can0 302#41011D1713FFFFFF
(1676143422.539663) can0 07D#0020000000000000
(1676143422.540642) can0 245#0001400000800093
(1676143422.544768) can0 06C#0008171800000080
(1676143422.553039) can0 0B0#E1000822FD020C00
(1676143422.558247) can0 0F7#021A01C080910300
(1676143422.559257) can0 214#0000000000000000
(1676143422.560262) can0 0DF#0100000000000000
(1676143422.564510) can0 2A0#2D2F00000003C315
(1676143422.565453) can0 0FD#2370E819E1000000
(1676143422.566404) can0 110#442902FD4000BF04
(1676143422.567397) can0 188#0301000000000000
(1676143422.569510) can0 180#3DD8000003830104
(1676143422.573965) can0 07A#0100000000000000
(1676143422.574501) can0 304#0000000000000000
(1676143422.575438) can0 06C#0008171800000080
(1676143422.576266) can0 07E#003B9D62F004E020
(1676143422.577930) can0 080#000003C315C10505
(1676143422.578919) can0 504#0502000104000000
(1676143422.579920) can0 07D#0020000000000000
(1676143422.580909) can0 160#0000000008000000
(1676143422.584637) can0 301#0400300000000000
(1676143422.585556) can0 330#500303C31503C315
(1676143422.589919) can0 310#8C08000000920800
(1676143422.590870) can0 32A#1F2030270003C315
(1676143422.598394) can0 2F0#0000100047B20000
(1676143422.599770) can0 0DF#0100000000000000
(1676143422.600760) can0 230#0000000000120000
(1676143422.601715) can0 440#3207500002258000
(1676143422.603168) can0 0B0#E1000822FD020C00
(1676143422.604807) can0 06C#00081C1800000080
(1676143422.608386) can0 0F7#021A01C080910300
(1676143422.609388) can0 214#0000000000000000
(1676143422.610403) can0 07A#0100000000000000
(1676143422.613291) can0 0A3#000000C111040040
(1676143422.615109) can0 0FD#F3708019E1000000
(1676143422.620046) can0 07D#0020000000000000
(1676143422.621026) can0 245#0001400000800093
(1676143422.623212) can0 201#0000000000000000
(1676143422.624560) can0 07E#003B9D62F304E020
(1676143422.625513) can0 110#442902FD4000BF04
(1676143422.627728) can0 080#000003C315C18505
(1676143422.629819) can0 180#3DD8000003830104
(1676143422.630806) can0 160#0000000008000000
(1676143422.631764) can0 335#590D00C203000000
(1676143422.633332) can0 102#0000001C8003C315
(1676143422.635269) can0 06C#0008171800000080
(1676143422.639843) can0 0DF#0100000000000000
(1676143422.640835) can0 188#0301000000000000
(1676143422.650272) can0 07A#0100000000000000
(1676143422.653163) can0 0B0#E1000822FD020C00
(1676143422.654127) can0 0A3#000000C111040040
(1676143422.655050) can0 455#700440008D03C315
(1676143422.658451) can0 0F7#021A01C080910300
(1676143422.659386) can0 214#0000000000000000
(1676143422.660383) can0 07D#0020000000000000
(1676143422.661347) can0 46B#0EFFFFFFFFFFFFB0
(1676143422.662342) can0 4F0#0000000000008000
(1676143422.664726) can0 06C#0008171800000080
(1676143422.665668) can0 0FD#D3709019E1000000
(1676143422.674930) can0 07E#003B9D62F304E020
(1676143422.677738) can0 080#000003C315C10505
(1676143422.680098) can0 0DF#0100000000000000
(1676143422.681090) can0 160#0000000008000000
(1676143422.682498) can0 505#1102000105000000
(1676143422.684527) can0 2A0#2D2F00000003C315
(1676143422.685477) can0 110#442902FD4000BF04
(1676143422.689525) can0 180#3DD8000003830104
(1676143422.690532) can0 07A#0100000000000000
(1676143422.691541) can0 304#0000000000000000
(1676143422.693083) can0 0A3#000000C111040040
(1676143422.694048) can0 102#0000001C8003C315
(1676143422.695092) can0 06C#0008171800000080
(1676143422.699620) can0 230#0000000000120000
(1676143422.700619) can0 07D#0020000000000000
(1676143422.701604) can0 245#0001400000800093
(1676143422.702561) can0 440#3207500002258000
(1676143422.703521) can0 0B0#E2000822FD020C00
(1676143422.704584) can0 301#0400300000000000
(1676143422.707425) can0 488#0000000000005800
(1676143422.708357) can0 0F7#021A01C080910300
(1676143422.709378) can0 214#0000000000000000
(1676143422.710340) can0 310#8C08000000920800
(1676143422.711300) can0 4A0#01010000A616FD0F
(1676143422.713112) can0 201#0000000000000000
(1676143422.714084) can0 4C0#000000000003C315
(1676143422.715020) can0 0FD#A370A819E1000000
(1676143422.716014) can0 188#0301000000000000
(1676143422.716964) can0 302#41011D1713FFFFFF
(1676143422.717940) can0 400#0303020102020101
(1676143422.718908) can0 2F0#0000100047B20000
(1676143422.719914) can0 0DF#0100000000000000
(1676143422.720913) can0 405#0000000000000000
(1676143422.724803) can0 06C#0008171800000080
(1676143422.725742) can0 07E#003B9D62F204E020
(1676143422.727402) can0 080#000003C315C10505
(1676143422.730202) can0 07A#0100000000000000
(1676143422.731192) can0 160#0000000008000000
(1676143422.733023) can0 0A3#000000C111040040
(1676143422.734879) can0 4B0#84010100008030F4
(1676143422.739891) can0 4BA#2000000000000000
(1676143422.740890) can0 07D#0020000000000000
(1676143422.744450) can0 110#4E29D02F4000BF02
(1676143422.749531) can0 180#3DD8000003830104
(1676143422.752974) can0 102#0000001C8003C315
(1676143422.753931) can0 0B0#E2000822FD020C00
(1676143422.755130) can0 06C#0008171800000080
(1676143422.758264) can0 0F7#021A01C080910300
(1676143422.759280) can0 214#0000000000000000
(1676143422.760345) can0 0DF#0100000000000000
(1676143422.761277) can0 4D0#4000200000000000
(1676143422.764547) can0 0FD#8370B819E1000000
(1676143422.770157) can0 07A#0100000000000000
(1676143422.772796) can0 0A3#000000C111040040
(1676143422.774883) can0 07E#003B9D62F004E020
(1676143422.777488) can0 080#000003C315C10505
(1676143422.779735) can0 07D#0020000000000000
(1676143422.780725) can0 160#0000000008000000
(1676143422.781708) can0 245#0001400000800093
(1676143422.784576) can0 06C#0008171800000080
(1676143422.790942) can0 188#0301000000000000
(1676143422.791933) can0 45A#0000000000000006
(1676143422.793083) can0 511#4712000105000000
(1676143422.794845) can0 490#0C005E28CC008009
(1676143422.799873) can0 0DF#0100000000000000
(1676143422.800862) can0 230#0000000000120000
(1676143422.801821) can0 440#3207500002258000
(1676143422.803093) can0 0B0#E1000822FD024800
(1676143422.804091) can0 201#0000000000000000
(1676143422.805031) can0 110#4429D02F4000BF02
(1676143422.805998) can0 2A0#2D2F00000003C315
(1676143422.808270) can0 0F7#021A01C080910300
(1676143422.809285) can0 214#0000000000000000
(1676143422.810302) can0 07A#0100000000000000
(1676143422.811290) can0 180#3DD8000003830104
(1676143422.812306) can0 304#0000000000000000
(1676143422.813263) can0 0A3#000000C111040040
(1676143422.814234) can0 102#0000001C8003C315
(1676143422.815155) can0 330#500303C31503C315
(1676143422.816137) can0 06C#0008171800000080
(1676143422.817082) can0 0FD#5370D019E1000000
(1676143422.818025) can0 32A#1F2830270003C315
(1676143422.818952) can0 48A#9180848224C00080
(1676143422.819951) can0 07D#0020000000000000
(1676143422.824538) can0 07E#003B9D62F004E020
(1676143422.825524) can0 301#0400300000000000
(1676143422.827143) can0 080#000003C315C10505
(1676143422.829640) can0 310#8C08000000920800
(1676143422.830631) can0 160#0000000008000000
(1676143422.838305) can0 2F0#0000300047B20000
(1676143422.839669) can0 0DF#0100000000000000
(1676143422.840668) can0 4F0#0000000000008000
(1676143422.844581) can0 06C#0008171800000080
(1676143422.850176) can0 07A#0100000000000000
(1676143422.852839) can0 0A3#000000C111040040
(1676143422.853772) can0 0B0#E2000822FD020800
(1676143422.858261) can0 0F7#021A01C080910300
(1676143422.859275) can0 214#0000000000000000
(1676143422.860274) can0 07D#0020000000000000
(1676143422.861260) can0 245#0001400000800093
(1676143422.864595) can0 0FD#3370E019E1000000
(1676143422.865527) can0 110#4E29D02F4000BF03
(1676143422.866520) can0 188#0301000000000000
(1676143422.869559) can0 180#3DD8000003830104
(1676143422.872803) can0 102#0000001C8003C315
(1676143422.875051) can0 06C#0008171800000080
(1676143422.876000) can0 07E#003B9D62EE04E020
(1676143422.876996) can0 080#000003C315C10505
(1676143422.879685) can0 0DF#0100000000000000
(1676143422.880675) can0 160#0000000008000000
(1676143422.890141) can0 07A#0100000000000000
(1676143422.892759) can0 0A3#000000E111040040
(1676143422.893758) can0 201#0000000000000000
(1676143422.895044) can0 302#41001D1713FFFFFF
(1676143422.896017) can0 547#0112000047000000
(1676143422.899608) can0 230#0000000000120000
(1676143422.900608) can0 07D#0020000000000000
(1676143422.901567) can0 440#3207500002258000
(1676143422.903103) can0 0B0#E1000822E11ECC00
(1676143422.904750) can0 06C#0008171800000080
(1676143422.908267) can0 0F7#021A01C080910300
(1676143422.909282) can0 214#0000000000000000
(1676143422.914924) can0 0FD#0370F819E1000000
(1676143422.919888) can0 0DF#0100000000000000
(1676143422.924438) can0 2A0#2D2F00000003C315
(1676143422.925382) can0 07E#003B9D62EE04E020
(1676143422.926316) can0 110#4E29D02F4000BF04
(1676143422.927365) can0 080#000003C315C10505
(1676143422.929568) can0 180#3DD8000003830104
(1676143422.930584) can0 07A#0100000000000000
(1676143422.931576) can0 160#0000000008000000
(1676143422.932581) can0 304#0000000000000000
(1676143422.933556) can0 0A3#000000C111040040
(1676143422.934516) can0 102#0000001C8003C315
(1676143422.935495) can0 06C#0008171800000080
(1676143422.936446) can0 335#590D00C203000000
(1676143422.939709) can0 07D#0020000000000000
(1676143422.940694) can0 245#0001400000800093
(1676143422.941688) can0 188#0301000000000000
(1676143422.944536) can0 301#0400300000000000
(1676143422.949822) can0 310#8C08000000920800
(1676143422.953048) can0 0B0#E1000822E11E0C00
(1676143422.953972) can0 455#700440008D03C315
(1676143422.954944) can0 496#C02D3C6000000000
(1676143422.958261) can0 0F7#021A01C080910300
(1676143422.959276) can0 214#0000000000000000
(1676143422.960289) can0 0DF#0100000000000000
(1676143422.961250) can0 2F0#0000100047B20000
(1676143422.962219) can0 400#0401020202010201
(1676143422.963191) can0 405#100000000053414C
(1676143422.964725) can0 06C#0008171800000080
(1676143422.965661) can0 0FD#E3708819E1000000
(1676143422.970157) can0 07A#0100000000000000
(1676143422.972697) can0 0A3#000000C111040040
(1676143422.974893) can0 07E#003B9D62EF04E020
(1676143422.976977) can0 080#000003C315C10505
(1676143422.979960) can0 07D#0020000000000000
(1676143422.980952) can0 160#0000000008000000
(1676143422.983135) can0 201#0000000000000000
(1676143422.984511) can0 110#4429D02F4000BF04
(1676143422.989517) can0 180#3DD8000003830104
(1676143422.992633) can0 102#0000001C8003C315
(1676143422.995201) can0 06C#0008171800000080
(1676143422.999686) can0 0DF#0100000000000000
(1676143423.000675) can0 230#0000000000120000
(1676143423.001647) can0 440#3207500002258000
(1676143423.003051) can0 0B0#E1000822E11E0C00
(1676143423.004620) can0 501#0302004101000000
(1676143423.008265) can0 0F7#021A01C080910300
(1676143423.009278) can0 214#0000000000000000
(1676143423.010294) can0 07A#0100000000000000
(1676143423.012685) can0 0A3#000000C111040040
(1676143423.014973) can0 0FD#B370A019E1000000
(1676143423.016549) can0 188#0301000000000000
(1676143423.019611) can0 46B#0FFFFFFFFFFFFFB0
(1676143423.020615) can0 07D#0020000000000000
(1676143423.021593) can0 245#0001400000800093
(1676143423.022591) can0 4F0#0000000000008000
(1676143423.024566) can0 06C#0008171800000080
(1676143423.025503) can0 07E#003B9D62EF04E020
(1676143423.026579) can0 080#000003C315C10505
(1676143423.030162) can0 160#0000000008000000
(1676143423.034947) can0 330#500303C31503C315
(1676143423.039992) can0 0DF#0100000000000000
(1676143423.040944) can0 32A#1F0030270003C315
(1676143423.044542) can0 2A0#2D2F00000003C315
(1676143423.045488) can0 110#4429D02F4000BF04
(1676143423.049516) can0 180#3DD8000003830104
(1676143423.050532) can0 07A#0100000000000000
(1676143423.051546) can0 304#0000000000000000
(1676143423.052587) can0 0A3#000000C111040040
(1676143423.053526) can0 0B0#E1000822E11E0C00
(1676143423.054496) can0 102#0000001C8003C315
(1676143423.055476) can0 06C#0008171800000080
(1676143423.058291) can0 0F7#021A01C080910300
(1676143423.059305) can0 214#0000000000000000
(1676143423.060304) can0 07D#0020000000000000
(1676143423.064537) can0 0FD#9370B019E1000000
(1676143423.065528) can0 301#0400300000000000
(1676143423.066521) can0 488#0000000000005800
(1676143423.069609) can0 310#8C08000000920800
(1676143423.073105) can0 201#0000000000000000
(1676143423.074860) can0 07E#003B9D62F104E020
(1676143423.075807) can0 302#41011D1713FFFFFF
(1676143423.076793) can0 080#000003C315C10505
(1676143423.078329) can0 2F0#0000100047B20000
(1676143423.079842) can0 0DF#0100000000000000
(1676143423.080831) can0 160#0000000008000000
(1676143423.084717) can0 06C#0008171800000080
(1676143423.090143) can0 07A#0100000000000000
(1676143423.091736) can0 188#0301000000000000
(1676143423.092703) can0 0A3#000000C111040040
(1676143423.099833) can0 230#0000000000120000
(1676143423.100795) can0 07D#0020000000000000
(1676143423.101778) can0 245#0001400000800093
(1676143423.102745) can0 440#3207500002258000
(1676143423.103681) can0 0B0#E1000822E11E0C00
(1676143423.104626) can0 110#4429D02F4000BF04
(1676143423.108289) can0 0F7#021A01C080910300
(1676143423.109301) can0 214#0000000000000000
(1676143423.110292) can0 180#3DD8000003830104
(1676143423.112570) can0 102#0000001C8003C315
(1676143423.115112) can0 06C#0008171800000080
(1676143423.116057) can0 0FD#6370C819E1000000
(1676143423.118334) can0 503#0412000003000000
(1676143423.119687) can0 0DF#0100000000000000
(1676143423.124485) can0 07E#003B9D62F104E020
(1676143423.126312) can0 080#000003C315C18505
(1676143423.130165) can0 07A#0100000000000000
(1676143423.131162) can0 160#0000000008000000
(1676143423.132499) can0 0A3#000000C111040040
(1676143423.139638) can0 07D#0020000000000000
(1676143423.144564) can0 06C#0008171800000080
(1676143423.151899) can0 45A#0000000000000006
(1676143423.153116) can0 0B0#E1000822E11E0C00
(1676143423.158274) can0 0F7#021A01C080910300
(1676143423.159286) can0 214#0000000000000000
(1676143423.160292) can0 0DF#0100000000000000
(1676143423.163131) can0 201#0000000000000000
(1676143423.164555) can0 2A0#2D2F00000003C315
(1676143423.165509) can0 0FD#4370D819E1000000
(1676143423.166433) can0 110#4429D02F4000BF04
(1676143423.167427) can0 188#0301000000000000
(1676143423.169657) can0 180#3DD8000003830104
(1676143423.170672) can0 07A#0100000000000000
(1676143423.171678) can0 304#0000000000000000
(1676143423.176084) can0 0A3#000000E111040040
(1676143423.176614) can0 102#0000001C8003C315
(1676143423.177524) can0 080#000003C315C10505
(1676143423.179911) can0 07D#0020000000000000
(1676143423.180901) can0 160#0000000008000000
(1676143423.181882) can0 245#0001400000800093
(1676143423.184646) can0 301#0400300000000000
(1676143423.189681) can0 310#8C08000000920800
(1676143423.198430) can0 2F0#0000100047B20000
(1676143423.199776) can0 0DF#0100000000000000
(1676143423.200767) can0 230#0000000000120000
(1676143423.201728) can0 440#3207500002258000
(1676143423.202727) can0 4F0#0000000000008000
(1676143423.203675) can0 0B0#E2000822E11E0C00
(1676143423.204799) can0 06C#0008171800000080
(1676143423.208402) can0 0F7#021A01C080910300
(1676143423.209426) can0 214#0000000000000000
(1676143423.210437) can0 07A#0100000000000000
(1676143423.212532) can0 0A3#000000C111040040
(1676143423.215169) can0 400#0502020202010201
(1676143423.216116) can0 0FD#1370F019E1000000
(1676143423.217061) can0 405#01674179996D03EF
(1676143423.220099) can0 07D#0020000000000000
(1676143423.224629) can0 07E#003B9D62EF04E020
(1676143423.225660) can0 110#4429D02F4000BF04
(1676143423.226556) can0 080#000003C315C10505
(1676143423.227545) can0 504#0502000104000000
(1676143423.229656) can0 180#3DD8000003830104
(1676143423.230661) can0 160#0000000008000000
(1676143423.231661) can0 335#590D00C21A000000
(1676143423.232560) can0 102#0000001C8003C315
(1676143423.235263) can0 06C#00081C1800000080
(1676143423.239745) can0 0DF#0100000000000000
(1676143423.242242) can0 188#0301000000000000
(1676143423.244554) can0 490#0C005E28CC008009
(1676143423.250230) can0 07A#0100000000000000
(1676143423.252237) can0 0A3#000000C111040040
(1676143423.253178) can0 0B0#E1000822E11E0C00
(1676143423.254185) can0 201#0000000000000000
(1676143423.255145) can0 302#41011E1713FFFFFF
(1676143423.256055) can0 455#700440008D03C315
(1676143423.258393) can0 0F7#021A01C080910300
(1676143423.259405) can0 214#0000000000000000
(1676143423.260405) can0 07D#0020000000000000
(1676143423.261388) can0 245#0001400000800093
(1676143423.262314) can0 330#500303C31503C315
(1676143423.263256) can0 48A#9180840224C00080
(1676143423.264887) can0 06C#0008171800000080
(1676143423.265830) can0 0FD#F3708019E1000000
(1676143423.266781) can0 32A#1F2830280003C315
(1676143423.277828) can0 07E#003B9D62EE04E020
(1676143423.278140) can0 080#000003C315C10505
(1676143423.279853) can0 0DF#0100000000000000
(1676143423.280844) can0 160#0000000008000000
(1676143423.284526) can0 2A0#2D2F00000003C315
(1676143423.285401) can0 110#4429D02F4000BF04
(1676143423.289436) can0 180#3DD8000003830104
(1676143423.290449) can0 07A#0100000000000000
(1676143423.291455) can0 304#0000000000000000
(1676143423.292420) can0 0A3#000000C111040040
(1676143423.293386) can0 102#0000001C8003C315
(1676143423.295098) can0 06C#0008171800000080
(1676143423.299742) can0 230#0000000000120000
(1676143423.300739) can0 07D#0020000000000000
(1676143423.301697) can0 440#3207500002258000
(1676143423.303068) can0 0B0#E1000822E11E0C00
(1676143423.304589) can0 301#0400300000000000
(1676143423.308279) can0 0F7#021A01C080910300
(1676143423.309291) can0 214#0000000000000000
(1676143423.310257) can0 310#8C08000000920800
(1676143423.314945) can0 0FD#C3709819E1000000
(1676143423.317341) can0 188#0301000000000000
(1676143423.318321) can0 2F0#0000100047B20000
(1676143423.319612) can0 0DF#0100000000000000
(1676143423.324596) can0 06C#0008171800000080
(1676143423.325545) can0 07E#003B9D62EC04E020
(1676143423.326534) can0 080#000003C315C10505
(1676143423.330169) can0 07A#0100000000000000
(1676143423.331157) can0 160#0000000008000000
(1676143423.332211) can0 0A3#000000C111040040
(1676143423.339844) can0 07D#0020000000000000
(1676143423.340822) can0 245#0001400000800093
(1676143423.341805) can0 505#1102000105000000
(1676143423.343163) can0 201#0000000000000000
(1676143423.344514) can0 110#4429D02F4000BF04
(1676143423.349437) can0 180#3DD8000003830104
(1676143423.352116) can0 102#0000001C8003C315
(1676143423.353089) can0 0B0#E1000822E11E0C00
(1676143423.355304) can0 06C#0008171800000080
(1676143423.358314) can0 0F7#021A01C080910300
(1676143423.359303) can0 214#0000000000000000
(1676143423.360310) can0 0DF#0100000000000000
(1676143423.364568) can0 0FD#A370A819E1000000
(1676143423.370119) can0 07A#0100000000000000
(1676143423.372135) can0 0A3#000000C111040040
(1676143423.378247) can0 07E#003B9D62ED04E020
(1676143423.378782) can0 080#000003C315C10505
(1676143423.379725) can0 46B#00FFFFFFFFFFFFB0
(1676143423.380722) can0 07D#0020000000000000
(1676143423.381713) can0 160#0000000008000000
(1676143423.382712) can0 4F0#0000000000008000
(1676143423.384737) can0 06C#00081C1800000080
(1676143423.392646) can0 188#0301000000000000
(1676143423.400080) can0 0DF#0100000000000000
(1676143423.401064) can0 230#0000000000120000
(1676143423.402023) can0 440#3207500002258000
(1676143423.403197) can0 0B0#E2000822E11E0C00
(1676143423.404661) can0 2A0#2D2F00000003C315
(1676143423.405602) can0 110#4429D02F4000BF04
(1676143423.408397) can0 0F7#021A01C080910300
(1676143423.409421) can0 214#0000000000000000
(1676143423.410431) can0 07A#0100000000000000
(1676143423.411421) can0 180#3DD8000003830104
(1676143423.412387) can0 0A3#000000C111040040
(1676143423.413352) can0 102#0000001C8003C315
(1676143423.414411) can0 304#0000000000000000
(1676143423.415364) can0 06C#00081C1800000080
(1676143423.416306) can0 0FD#7370C019E1000000
(1676143423.419758) can0 07D#0020000000000000
(1676143423.420738) can0 245#0001400000800093
(1676143423.424602) can0 07E#003B9D62EB04E020
(1676143423.425593) can0 301#0400300000000000
(1676143423.426682) can0 080#000003C315C10505
(1676143423.427576) can0 488#0000000000005800
(1676143423.429635) can0 4A0#01010000A617FD10
(1676143423.430623) can0 160#0000000008000000
(1676143423.431591) can0 310#8C08000000920800
(1676143423.433236) can0 201#0000000000000000
(1676143423.434202) can0 4C0#000000000003C315
(1676143423.435223) can0 302#41001E1713FFFFFF
(1676143423.438440) can0 2F0#0000100047B20000
(1676143423.439666) can0 0DF#0100000000000000
(1676143423.444841) can0 06C#0008171800000080
(1676143423.450236) can0 07A#0100000000000000
(1676143423.451922) can0 0A3#000000C111040040
(1676143423.453161) can0 0B0#E2000822E11E0C00
(1676143423.454116) can0 511#4712000105000000
(1676143423.455189) can0 4B0#84010100008030F4
(1676143423.458386) can0 0F7#021A01C080910300
(1676143423.459409) can0 214#0000000000000000
(1676143423.460402) can0 07D#0020000000000000
(1676143423.461368) can0 400#0602010002010101
(1676143423.462311) can0 405#023831003803C315
(1676143423.463304) can0 4BA#2000000000000000
(1676143423.464705) can0 0FD#5370D019E1000000
(1676143423.465634) can0 110#4429D02F4000BF04
(1676143423.467855) can0 188#0301000000000000
(1676143423.469581) can0 180#3DD8000003830104
(1676143423.472056) can0 102#0000001C8003C315
(1676143423.478849) can0 06C#0008171800000080
(1676143423.479274) can0 07E#003B9D62EB04E020
(1676143423.479933) can0 0DF#0100000000000000
(1676143423.480616) can0 160#0000000008000000
(1676143423.481607) can0 4D0#4000200000000000
(1676143423.484524) can0 330#500303C31503C315
(1676143423.489777) can0 32A#1F2030280003C315
(1676143423.490779) can0 07A#0100000000000000
(1676143423.491918) can0 0A3#000000E111040040
(1676143423.499497) can0 230#0000000000120000
(1676143423.500490) can0 07D#0020000000000000
(1676143423.501471) can0 245#0001400000800093
(1676143423.502430) can0 440#3207500002258000
(1676143423.503470) can0 0B0#E1000822E11E0C00
(1676143423.504687) can0 06C#0008171800000080
(1676143423.508289) can0 0F7#021A01C080910300
(1676143423.509304) can0 214#0000000000000000
(1676143423.512844) can0 45A#0000000000000006
(1676143423.515130) can0 0FD#2370E819E1000000
(1676143423.519753) can0 0DF#0100000000000000
(1676143423.523113) can0 201#0000000000000000
(1676143423.524507) can0 2A0#2D2F00000003C315
(1676143423.525463) can0 07E#003B9D62EB04E020
(1676143423.526445) can0 080#000003C315C10505
(1676143423.527448) can0 110#4429D02F4000BF04
(1676143423.529477) can0 180#3DD8000003830104
(1676143423.530495) can0 07A#0100000000000000
(1676143423.531484) can0 160#0000000008000000
(1676143423.532450) can0 0A3#000000C111040040
(1676143423.533446) can0 102#0000001C8003C315
(1676143423.534424) can0 304#0000000000000000
(1676143423.535403) can0 06C#0008171800000080
(1676143423.536337) can0 335#590D00C21A000000
(1676143423.539618) can0 07D#0020000000000000
(1676143423.542924) can0 188#0301000000000000
(1676143423.544580) can0 301#0400300000000000
(1676143423.549490) can0 310#8C08000000920800
(1676143423.553056) can0 0B0#E2000822E11E0C00
(1676143423.553984) can0 455#700440008D03C315
(1676143423.554927) can0 496#C02D3C5F00000000
(1676143423.555901) can0 547#0112000047000000
(1676143423.558275) can0 0F7#021A01C080910300
(1676143423.559290) can0 214#0000000000000000
(1676143423.560300) can0 0DF#0100000000000000
(1676143423.561266) can0 2F0#0000100047B20000
(1676143423.562265) can0 4F0#0000000000008000
(1676143423.564733) can0 06C#0008171800000080
(1676143423.565685) can0 0FD#0370F819E1000000
(1676143423.570112) can0 07A#0100000000000000
(1676143423.571828) can0 0A3#000000C111040040
(1676143423.575010) can0 07E#003B9D62EB04E020
(1676143423.575998) can0 080#000003C315C10505
(1676143423.579986) can0 07D#0020000000000000
(1676143423.580974) can0 160#0000000008000000
(1676143423.581953) can0 245#0001400000800093
(1676143423.584513) can0 110#4429D02F4000BF04
(1676143423.589423) can0 180#3DD8000003830104
(1676143423.591755) can0 102#0000001C8003C315
(1676143423.595051) can0 06C#0008171800000080
(1676143423.599558) can0 0DF#0100000000000000
(1676143423.600527) can0 230#0000000000120000
(1676143423.601486) can0 440#3207500002258000
(1676143423.603059) can0 0B0#E1000822E11E0C00
(1676143423.608289) can0 0F7#021A01C080910300
(1676143423.609296) can0 214#0000000000000000
(1676143423.610312) can0 07A#0100000000000000
(1676143423.611878) can0 0A3#000000C111040040
(1676143423.613123) can0 201#0000000000000000
(1676143423.615036) can0 0FD#D3709019E1000000
(1676143423.615983) can0 302#41011E1713FFFFFF
(1676143423.618125) can0 188#0301000000000000
(1676143423.619580) can0 07D#0020000000000000
(1676143423.624847) can0 06C#0008171800000080
(1676143423.625793) can0 07E#003B9D62EC04E020
(1676143423.626766) can0 080#000003C315C18505
(1676143423.630112) can0 160#0000000008000000
(1676143423.639657) can0 0DF#0100000000000000
(1676143423.644495) can0 2A0#2D2F00000003C315
(1676143423.645426) can0 110#4429D02F4000BF04
(1676143423.649410) can0 180#3DD8000003830104
(1676143423.650432) can0 07A#0100000000000000
(1676143423.651443) can0 304#0000000000000000
(1676143423.652454) can0 0A3#000000C111040040
(1676143423.653337) can0 0B0#E1000822E11E0C00
(1676143423.654307) can0 102#0000001C8003C315
(1676143423.655287) can0 06C#0008171800000080
(1676143423.658294) can0 0F7#021A01C080910300
(1676143423.659308) can0 214#0000000000000000
(1676143423.660306) can0 07D#0020000000000000
(1676143423.661293) can0 245#0001400000800093
(1676143423.664602) can0 0FD#B370A019E1000000
(1676143423.665592) can0 301#0400300000000000
(1676143423.666574) can0 501#0302004101000000
(1676143423.669773) can0 310#8C08000000920800
(1676143423.674846) can0 080#000003C315C10505
(1676143423.675790) can0 07E#003B9D62F004E020
(1676143423.678318) can0 2F0#0000100047B20000
(1676143423.679580) can0 0DF#0100000000000000
(1676143423.680571) can0 160#0000000008000000
(1676143423.684682) can0 06C#0008171800000080
(1676143423.690082) can0 07A#0100000000000000
(1676143423.691657) can0 0A3#000000C111040040
(1676143423.693307) can0 188#0301000000000000
(1676143423.694946) can0 490#0C005E28CC008009
(1676143423.699671) can0 230#0000000000120000
(1676143423.700669) can0 07D#0020000000000000
(1676143423.701632) can0 440#3207500002258000
(1676143423.703060) can0 0B0#E2000822E11E0C00
(1676143423.704061) can0 201#0000000000000000
(1676143423.705007) can0 110#4429D02F4000BF04
(1676143423.708287) can0 0F7#021A01C080910300
(1676143423.709305) can0 214#0000000000000000
(1676143423.710293) can0 180#3DD8000003830104
(1676143423.711221) can0 330#500303C31503C315
(1676143423.712188) can0 102#0000001C8003C315
(1676143423.713114) can0 48A#9180848224C00080
(1676143423.715297) can0 400#0701010201020101
(1676143423.716277) can0 06C#0008171800000080
(1676143423.717236) can0 0FD#8370B819E1000000
(1676143423.718187) can0 32A#1F2830280003C315
(1676143423.719188) can0 405#0000000000000000
(1676143423.720193) can0 0DF#0100000000000000
(1676143423.724572) can0 07E#003B9D62F004E020
(1676143423.725530) can0 080#000003C315C10505
(1676143423.730170) can0 07A#0100000000000000
(1676143423.731109) can0 160#0000000008000000
(1676143423.732077) can0 0A3#000000C111040040
(1676143423.739483) can0 46B#00FFFFFFFFFFFF30
(1676143423.740479) can0 07D#0020000000000000
(1676143423.741462) can0 245#0001400000800093
(1676143423.742471) can0 4F0#0000000000008000
(1676143423.744600) can0 06C#0008171800000080
(1676143423.753043) can0 0B0#E1000822E11E0C00
(1676143423.758283) can0 0F7#021A01C080910300
(1676143423.759296) can0 214#0000000000000000
(1676143423.760304) can0 0DF#0100000000000000
(1676143423.764612) can0 2A0#2D2F00000003C315
(1676143423.765556) can0 0FD#6370C819E1000000
(1676143423.766503) can0 110#4429D02F4000BF04
(1676143423.768520) can0 188#0301000000000000
(1676143423.769511) can0 180#3DD8000003830104
(1676143423.770527) can0 07A#0100000000000000
(1676143423.771533) can0 304#0000000000000000
(1676143423.772510) can0 0A3#000000E111040040
(1676143423.773459) can0 102#0000001C8003C315
(1676143423.774609) can0 080#000003C315C10505
(1676143423.775589) can0 06C#0008171800000080
(1676143423.776531) can0 07E#003B9D62F204E020
(1676143423.778354) can0 503#0412000003000000
(1676143423.779657) can0 07D#0020000000000000
(1676143423.780648) can0 160#0000000008000000
(1676143423.784597) can0 488#0000000000005800
(1676143423.785586) can0 301#0400300000000000
(1676143423.789568) can0 310#8C08000000920800
(1676143423.793101) can0 201#0000000000000000
(1676143423.794912) can0 302#41011E1713FFFFFF
(1676143423.798319) can0 2F0#0000300047B20000
(1676143423.799653) can0 0DF#0100000000000000
(1676143423.800643) can0 230#0000000000120000
(1676143423.801601) can0 440#3207500002258000
(1676143423.803060) can0 0B0#E2000822E11E0C00
(1676143423.804851) can0 06C#0008171800000080
(1676143423.808286) can0 0F7#021A01C080910300
(1676143423.809301) can0 214#0000000000000000
(1676143423.810317) can0 07A#0100000000000000
(1676143423.811567) can0 0A3#000000C111040040
(1676143423.815023) can0 0FD#3370E019E1000000
(1676143423.819671) can0 07D#0020000000000000
(1676143423.820654) can0 245#0001400000800093
(1676143423.824431) can0 080#000003C315C10505
(1676143423.825368) can0 07E#003B9D62F304E020
(1676143423.826316) can0 110#4429D02F4000BF04
(1676143423.829480) can0 180#3DD8000003830104
(1676143423.830470) can0 160#0000000008000000
(1676143423.831480) can0 102#0000001C8003C315
(1676143423.832387) can0 335#590D00C203000000
(1676143423.835086) can0 06C#0008171800000080
(1676143423.839649) can0 0DF#0100000000000000
(1676143423.843705) can0 188#0301000000000000
(1676143423.850065) can0 07A#0100000000000000
(1676143423.851397) can0 0A3#000000C111040040
(1676143423.853063) can0 0B0#E1000822E11E0C00
(1676143423.853990) can0 455#700440008D03C315
(1676143423.858272) can0 0F7#021A01C080910300
(1676143423.859285) can0 214#0000000000000000
(1676143423.860287) can0 07D#0020000000000000
(1676143423.864716) can0 06C#00081C1800000080
(1676143423.865659) can0 0FD#1370F019E1000000
(1676143423.873772) can0 45A#0000000000000006
(1676143423.874767) can0 080#000003C315C10505
(1676143423.878842) can0 07E#003B9D62F304E020
(1676143423.879799) can0 0DF#0100000000000000
(1676143423.880788) can0 160#0000000008000000
(1676143423.883220) can0 201#0000000000000000
(1676143423.884660) can0 2A0#2D2F00000003C315
(1676143423.885601) can0 110#4429D02F4000BF04
(1676143423.886587) can0 504#0502000104000000
(1676143423.889547) can0 180#3DD8000003830104
(1676143423.890559) can0 07A#0100000000000000
(1676143423.891601) can0 0A3#000000C111040040
(1676143423.892549) can0 102#0000001C8003C315
(1676143423.893534) can0 304#0000000000000000
(1676143423.895454) can0 06C#0008171800000080
(1676143423.899647) can0 230#0000000000120000
(1676143423.900669) can0 07D#0020000000000000
(1676143423.901647) can0 245#0001400000800093
(1676143423.902594) can0 440#3207500002258000
(1676143423.903653) can0 0B0#E1000822E11E0C00
(1676143423.904763) can0 301#0400300000000000
(1676143423.908395) can0 0F7#021A01C080910300
(1676143423.909402) can0 214#0000000000000000
(1676143423.910370) can0 310#8C08000000920800
(1676143423.915094) can0 0FD#E3708819E1000000
(1676143423.922313) can0 2F0#0000100047B20000
(1676143423.922866) can0 4F0#0000000000008000
(1676143423.923296) can0 188#0301000000000000
(1676143423.924293) can0 080#000003C315C10505
(1676143423.925294) can0 06C#0008171800000080
(1676143423.926221) can0 07E#003B9D62F304E020
(1676143423.930225) can0 07A#0100000000000000
(1676143423.931192) can0 160#0000000008000000
(1676143423.932156) can0 0A3#000000C111040040
(1676143423.935155) can0 330#500303C31503C315
(1676143423.939972) can0 07D#0020000000000000
(1676143423.940930) can0 32A#1F0830280003C315
(1676143423.944611) can0 110#4429D02F4000BF04
(1676143423.949517) can0 180#3DD8000003830104
(1676143423.951317) can0 102#0000001C8003C315
(1676143423.953146) can0 0B0#E1000822E11E0C00
(1676143423.955259) can0 06C#0008171800000080
(1676143423.958387) can0 0F7#021A01C080910300
(1676143423.959412) can0 214#0000000000000000
(1676143423.960431) can0 0DF#0100000000000000
(1676143423.961369) can0 400#0802551606020101
(1676143423.962370) can0 405#0000000000000000
(1676143423.964706) can0 0FD#C3709819E1000000
(1676143423.970160) can0 07A#0100000000000000
(1676143423.971362) can0 0A3#000000C111040040
(1676143423.973224) can0 201#0000000000000000
(1676143423.974246) can0 080#000003C315C10505
(1676143423.975200) can0 07E#003B9D62F304E020
(1676143423.978303) can0 302#41011E1713FFFFFF
(1676143423.979567) can0 07D#0020000000000000
(1676143423.980663) can0 160#0000000008000000
(1676143423.981540) can0 245#0001400000800093
(1676143423.984708) can0 06C#0008171800000080
(1676143423.994087) can0 188#0301000000000000
(1676143423.998961) can0 505#1102000105000000
(1676143423.999962) can0 0DF#0100000000000000
(1676143424.000952) can0 230#0000000000120000
(1676143424.001911) can0 440#3207500002258000
(1676143424.003077) can0 0B0#E1000822E11E0C00
(1676143424.004590) can0 2A0#2D2F00000003C315
(1676143424.005527) can0 110#4429D02F4000BF04
(1676143424.008284) can0 0F7#021A01C080910300
(1676143424.009308) can0 214#0000000000000000
(1676143424.010323) can0 07A#0100000000000000
(1676143424.011289) can0 0A3#000000C111040040
(1676143424.012245) can0 102#0000001C8003C315
(1676143424.013234) can0 180#3DD8000003830104
(1676143424.014243) can0 304#0000000000000000
(1676143424.015223) can0 06C#0008171800000080
(1676143424.016196) can0 0FD#9370B019E1000000
(1676143424.019580) can0 07D#0020000000000000
(1676143424.023913) can0 080#000003C315C10505
(1676143424.024859) can0 07E#003B9D62F204E020
(1676143424.025843) can0 301#0400300000000000
(1676143424.029735) can0 310#8C08000000920800
(1676143424.030725) can0 160#0000000008000000
(1676143424.038294) can0 2F0#0000100047B20000
(1676143424.039518) can0 0DF#0100000000000000
(1676143424.044616) can0 06C#0008171800000080
(1676143424.050038) can0 07A#0100000000000000
(1676143424.051077) can0 0A3#000000C111040040
(1676143424.053040) can0 0B0#E2000822E11E0C00
(1676143424.058259) can0 0F7#021A01C080910300
(1676143424.059266) can0 214#0000000000000000
(1676143424.060269) can0 07D#0020000000000000
(1676143424.061248) can0 245#0001400000800093
(1676143424.063093) can0 201#0000000000000000
(1676143424.064572) can0 0FD#7370C019E1000000
(1676143424.065513) can0 110#4429D02F4000BF04
(1676143424.069285) can0 188#0301000000000000
(1676143424.070271) can0 180#3DD8000003830104
(1676143424.071238) can0 102#0000001C8003C315
(1676143424.074014) can0 080#000003C315C10505
(1676143424.078680) can0 06C#0008171800000080
(1676143424.079213) can0 07E#003B9D62F304E020
(1676143424.079743) can0 0DF#0100000000000000
(1676143424.080800) can0 160#0000000008000000
(1676143424.090101) can0 07A#0100000000000000
(1676143424.091093) can0 0A3#000000E111040040
(1676143424.099550) can0 230#0000000000120000
(1676143424.100574) can0 07D#0020000000000000
(1676143424.101499) can0 440#3207500002258000
(1676143424.102481) can0 46B#01FFFFFFFFFFFFB0
(1676143424.103423) can0 0B0#E1000822E11E0C00
(1676143424.104419) can0 4F0#0000000000008000
(1676143424.105396) can0 06C#0008171800000080
(1676143424.108342) can0 0F7#021A01C080910300
(1676143424.109359) can0 214#0000000000000000
(1676143424.113105) can0 511#4712000105000000
(1676143424.115059) can0 0FD#4370D819E1000000
(1676143424.119837) can0 0DF#0100000000000000
(1676143424.123692) can0 080#000003C315C18505
(1676143424.124618) can0 07E#003B9D62F104E020
(1676143424.125559) can0 110#4429D02F4000BF04
(1676143424.126523) can0 2A0#2D2F00000003C315
(1676143424.129565) can0 180#3DD8000003830104
(1676143424.130529) can0 07A#0100000000000000
(1676143424.131494) can0 0A3#000000C111040040
(1676143424.132459) can0 102#0000001C8003C315
(1676143424.133449) can0 160#0000000008000000
(1676143424.134454) can0 304#0000000000000000
(1676143424.135566) can0 06C#0008171800000080
(1676143424.136387) can0 335#590D00C203000000
(1676143424.139648) can0 07D#0020000000000000
(1676143424.140624) can0 245#0001400000800093
(1676143424.143638) can0 488#0000000000005800
(1676143424.144642) can0 188#0301000000000000
(1676143424.145623) can0 301#0400300000000000
(1676143424.146571) can0 490#0C005E28CC008009
(1676143424.149487) can0 4A0#01010000A618FD10
(1676143424.150449) can0 310#8C08000000920800
(1676143424.153187) can0 0B0#E1000822E11E0C00
(1676143424.154095) can0 201#0000000000000000
(1676143424.155046) can0 302#41001E1713FFFFFF
(1676143424.155972) can0 455#700440008D03C315
(1676143424.156920) can0 496#C02D3C5F00000000
(1676143424.157901) can0 4C0#000000000003C315
(1676143424.158828) can0 0F7#021A01C080910300
(1676143424.159829) can0 0DF#0100000000000000
(1676143424.160841) can0 214#0000000000000000
(1676143424.161809) can0 2F0#0000100047B20000
(1676143424.162734) can0 330#500303C31503C315
(1676143424.163677) can0 48A#9180840224C00080
(1676143424.164894) can0 06C#0008171800000080
(1676143424.165856) can0 0FD#2370E819E1000000
(1676143424.166788) can0 32A#1F2030290003C315
(1676143424.170092) can0 07A#0100000000000000
(1676143424.171067) can0 0A3#000000C111040040
(1676143424.173804) can0 080#000003C315C10505
(1676143424.174948) can0 4B0#04010100008030F4
(1676143424.179284) can0 07E#003B9D62EF04E020
(1676143424.179709) can0 4BA#2000000000000000
(1676143424.180592) can0 07D#0020000000000000
(1676143424.181582) can0 160#0000000008000000
(1676143424.184426) can0 110#4429D02F4000BF04
(1676143424.189310) can0 180#3DD8000003830104
(1676143424.190829) can0 102#0000001C8003C315
(1676143424.194902) can0 06C#0008171800000080
(1676143424.199438) can0 0DF#0100000000000000
(1676143424.200422) can0 230#0000000000120000
(1676143424.201417) can0 440#3207500002258000
(1676143424.202371) can0 4D0#4000200000000000
(1676143424.203312) can0 0B0#E1000822E11E0C00
(1676143424.208176) can0 0F7#021A01C080910300
(1676143424.209194) can0 214#0000000000000000
(1676143424.210202) can0 07A#0100000000000000
(1676143424.211176) can0 0A3#000000C111040040
(1676143424.214873) can0 400#0903020302010324
(1676143424.215820) can0 0FD#F3708019E1000000
(1676143424.216761) can0 405#016741799977FC10
(1676143424.217740) can0 547#0112000047000000
(1676143424.219518) can0 07D#0020000000000000
(1676143424.220431) can0 188#0301000000000000
(1676143424.221415) can0 245#0001400000800093
(1676143424.223280) can0 080#000003C315C10505
(1676143424.224520) can0 06C#0008171800000080
(1676143424.225508) can0 07E#003B9D62F004E020
(1676143424.229931) can0 160#0000000008000000
(1676143424.234611) can0 45A#0000000000000006
(1676143424.239525) can0 0DF#0100000000000000
(1676143424.242989) can0 201#0000000000000000
(1676143424.244414) can0 2A0#2D2F00000003C315
(1676143424.245349) can0 110#4429D02F4000BF04
(1676143424.249441) can0 180#3DD8000003830104
(1676143424.250420) can0 07A#0100000000000000
(1676143424.251382) can0 0A3#000000C111040040
(1676143424.252347) can0 102#0000001C8003C315
(1676143424.253289) can0 0B0#E1000822E11E0C00
(1676143424.254299) can0 304#0000000000000000
(1676143424.255277) can0 06C#0008171800000080
(1676143424.258174) can0 0F7#021A01C080910300
(1676143424.259178) can0 214#0000000000000000
(1676143424.260176) can0 07D#0020000000000000
(1676143424.264458) can0 0FD#D3709019E1000000
(1676143424.265442) can0 301#0400300000000000
(1676143424.269366) can0 310#8C08000000920800
(1676143424.273117) can0 080#000003C315C10505
(1676143424.274693) can0 07E#003B9D62EC04E020
(1676143424.278195) can0 2F0#0000100047B20000
(1676143424.279480) can0 0DF#0100000000000000
(1676143424.280469) can0 160#0000000008000000
(1676143424.281467) can0 4F0#0000000000008000
(1676143424.284519) can0 06C#0008171800000080
(1676143424.289896) can0 07A#0100000000000000
(1676143424.290857) can0 0A3#000000C111040040
(1676143424.294736) can0 188#0301000000000000
(1676143424.299608) can0 230#0000000000120000
(1676143424.300604) can0 07D#0020000000000000
(1676143424.301584) can0 245#0001400000800093
(1676143424.302543) can0 440#3207500002258000
(1676143424.303485) can0 0B0#E2000822E11E0C00
(1676143424.304430) can0 110#4429D02F4000BF04
(1676143424.308157) can0 0F7#021A01C080910300
(1676143424.309160) can0 214#0000000000000000
(1676143424.310148) can0 180#3DD8000003830104
(1676143424.311113) can0 102#0000001C8003C315
(1676143424.315013) can0 06C#0008171800000080
(1676143424.315952) can0 0FD#A370A819E1000000
(1676143424.319386) can0 0DF#0100000000000000
(1676143424.322969) can0 080#000003C315C10505
(1676143424.324389) can0 07E#003B9D62EC04E020
(1676143424.325371) can0 501#0302004101000000
(1676143424.329886) can0 07A#0100000000000000
(1676143424.330849) can0 0A3#000000C111040040
(1676143424.331838) can0 160#0000000008000000
(1676143424.332986) can0 201#0000000000000000
(1676143424.334809) can0 302#41011F1713FFFFFF
(1676143424.339471) can0 07D#0020000000000000
(1676143424.344524) can0 06C#0008171800000080
(1676143424.352864) can0 0B0#E1000822E11E0C00
(1676143424.358121) can0 0F7#021A01C080910300
(1676143424.359131) can0 214#0000000000000000
(1676143424.360138) can0 0DF#0100000000000000
(1676143424.364382) can0 2A0#2D2F00000003C315
(1676143424.365333) can0 0FD#8370B819E1000000
(1676143424.366349) can0 110#4429D02F4000BF04
(1676143424.369230) can0 180#3DD8000003830104
(1676143424.370241) can0 07A#0100000000000000
(1676143424.371198) can0 0A3#000000E111040040
(1676143424.372161) can0 102#0000001C8003C315
(1676143424.373150) can0 080#000003C315C10505
(1676143424.374189) can0 188#0301000000000000
(1676143424.375125) can0 06C#0008171800000080
(1676143424.376080) can0 07E#003B9D62ED04E020
(1676143424.377085) can0 304#0000000000000000
(1676143424.379555) can0 07D#0020000000000000
(1676143424.380543) can0 160#0000000008000000
(1676143424.381529) can0 245#0001400000800093
(1676143424.384480) can0 301#0400300000000000
(1676143424.385310) can0 330#500303C31503C315
(1676143424.389386) can0 310#8C08000000920800
(1676143424.390327) can0 32A#1F2830290003C315
(1676143424.398117) can0 2F0#0000100047B20000
(1676143424.399310) can0 0DF#0100000000000000
(1676143424.400302) can0 230#0000000000120000
(1676143424.401265) can0 440#3207500002258000
(1676143424.402856) can0 0B0#E2000822E11E0C00
(1676143424.404491) can0 06C#0008171800000080
(1676143424.408085) can0 0F7#021A01C080910300
(1676143424.409095) can0 214#0000000000000000
(1676143424.410113) can0 07A#0100000000000000
(1676143424.411076) can0 0A3#000000C111040040
(1676143424.414782) can0 0FD#5370D019E1000000
(1676143424.419463) can0 07D#0020000000000000
(1676143424.422515) can0 080#000003C315C10505
(1676143424.423503) can0 201#0000000000000000
(1676143424.424457) can0 07E#003B9D62EE04E020
(1676143424.425394) can0 110#4429D02F4000BF04
(1676143424.429233) can0 180#3DD8000003830104
(1676143424.430222) can0 160#0000000008000000
(1676143424.431186) can0 102#0000001C8003C315
(1676143424.432121) can0 335#590D00C21A000000
(1676143424.435066) can0 06C#0008171800000080
(1676143424.438130) can0 503#0412000003000000
(1676143424.439348) can0 0DF#0100000000000000
(1676143424.445059) can0 188#0301000000000000
(1676143424.449789) can0 07A#0100000000000000
(1676143424.450764) can0 0A3#000000C111040040
(1676143424.452845) can0 0B0#E1000822E11E0C00
(1676143424.453763) can0 455#700440008D03C315
(1676143424.458058) can0 0F7#021A01C080910300
(1676143424.459068) can0 214#0000000000000000
(1676143424.460070) can0 07D#0020000000000000
(1676143424.461049) can0 245#0001400000800093
(1676143424.462020) can0 400#0A01010200001234
(1676143424.462958) can0 405#023831003803C315
(1676143424.463935) can0 46B#02FFFFFFFFFFFFB0
(1676143424.464916) can0 06C#0008171800000080
(1676143424.465858) can0 0FD#3370E019E1000000
(1676143424.466856) can0 4F0#0000000000008000
(1676143424.472518) can0 080#000003C315C10505
(1676143424.474792) can0 07E#003B9D62F004E020
(1676143424.479617) can0 0DF#0100000000000000
(1676143424.480611) can0 160#0000000008000000
(1676143424.484284) can0 2A0#2D2F00000003C315
(1676143424.485220) can0 110#4429D02F4000BF04
(1676143424.489140) can0 180#3DD8000003830104
(1676143424.490149) can0 07A#0100000000000000
(1676143424.491120) can0 0A3#000000C111040040
(1676143424.492082) can0 102#0000001C8003C315
(1676143424.493087) can0 304#0000000000000000
(1676143424.494830) can0 06C#0008171800000080
(1676143424.499247) can0 230#0000000000120000
(1676143424.500240) can0 07D#0020000000000000
(1676143424.501206) can0 440#3207500002258000
(1676143424.502303) can0 488#0000000000005800
(1676143424.503302) can0 0B0#E1000822E11E0C00
(1676143424.504382) can0 301#0400300000000000
(1676143424.508038) can0 0F7#021A01C080910380
(1676143424.509044) can0 214#0000000000000000
(1676143424.510010) can0 310#8C08000000920800
(1676143424.512848) can0 201#0000000000000000
(1676143424.514813) can0 0FD#0370F819E1000000
(1676143424.515771) can0 302#41011F1713FFFFFF
(1676143424.518079) can0 2F0#0000100047B20000
(1676143424.519280) can0 0DF#0100000000000000
(1676143424.520271) can0 188#0301000000000000
(1676143424.522325) can0 080#000003C315C10505
(1676143424.524504) can0 06C#0008171800000080
(1676143424.525448) can0 07E#003B9D62EF04E020
(1676143424.529776) can0 07A#0100000000000000
(1676143424.530744) can0 0A3#000000C111040040
(1676143424.531732) can0 160#0000000008000000
(1676143424.539416) can0 07D#0020000000000000
(1676143424.540394) can0 245#0001400000800093
(1676143424.544196) can0 110#4429D02F4000BF04
(1676143424.545172) can0 504#0502000104000000
(1676143424.549102) can0 180#3DD8000003830104
(1676143424.550110) can0 102#0000001C8003C315
(1676143424.552805) can0 0B0#E1000822E11E0C00
(1676143424.554812) can0 06C#0008171800000080
(1676143424.558013) can0 0F7#021A01C080910300
(1676143424.559029) can0 214#0000000000000000
(1676143424.560034) can0 0DF#0100000000000000
(1676143424.564303) can0 0FD#E3708819E1000000
(1676143424.569727) can0 07A#0100000000000000
(1676143424.570688) can0 0A3#000000C111040040
(1676143424.572425) can0 080#000003C315C10505
(1676143424.574637) can0 07E#003B9D62F004E020
(1676143424.579249) can0 07D#0020000000000000
(1676143424.580236) can0 160#0000000008000000
(1676143424.584304) can0 06C#0008171800000080
(1676143424.594475) can0 490#0C005E28CC008009
(1676143424.595459) can0 188#0301000000000000
(1676143424.596444) can0 45A#0000000000000006
(1676143424.599371) can0 0DF#0100000000000000
(1676143424.600359) can0 230#0000000000120000
(1676143424.601317) can0 440#3207500002258000
(1676143424.602759) can0 0B0#E1000822E11E0C00
(1676143424.603754) can0 201#0000000000000000
(1676143424.604694) can0 110#4429D02F4000BF04
(1676143424.605661) can0 2A0#2D2F00000003C315
(1676143424.607994) can0 0F7#021A01C080910300
(1676143424.609010) can0 214#0000000000000000
(1676143424.610026) can0 07A#0100000000000000
(1676143424.610987) can0 0A3#000000C111040040
(1676143424.611955) can0 102#0000001C8003C315
(1676143424.612946) can0 180#3DD8000003830104
(1676143424.613952) can0 304#0000000000000000
(1676143424.614876) can0 330#500303C31503C315
(1676143424.615857) can0 06C#0008171800000080
(1676143424.616793) can0 0FD#B370A019E1000000
(1676143424.617729) can0 32A#1F2030290003C315
(1676143424.618653) can0 48A#9180848224C00080
(1676143424.619656) can0 07D#0020000000000000
(1676143424.620634) can0 245#0001400000800093
(1676143424.622107) can0 080#000003C315C18505
(1676143424.624279) can0 07E#003B9D62EF04E020
(1676143424.625265) can0 301#0400300000000000
(1676143424.629175) can0 310#8C08000000920800
(1676143424.630166) can0 160#0000000008000000
(1676143424.638006) can0 2F0#0000100047B20000
(1676143424.639214) can0 0DF#0100000000000000
(1676143424.640244) can0 4F0#0000000000008000
(1676143424.644319) can0 06C#0008171800000080
(1676143424.649681) can0 07A#0100000000000000
(1676143424.650641) can0 0A3#000000C111040040
(1676143424.652745) can0 0B0#E2000822E11E0C00
(1676143424.656897) can0 505#1102000105000000
(1676143424.657966) can0 0F7#021A81C080910380
(1676143424.658980) can0 214#0000000000000000
(1676143424.659985) can0 07D#0020000000000000
(1676143424.664242) can0 0FD#9370B019E1000000
(1676143424.665175) can0 110#4429D02F4000BF04
(1676143424.669067) can0 180#3DD8000003830104
(1676143424.670036) can0 102#0000001C8003C315
(1676143424.671025) can0 188#0301000000000000
(1676143424.672013) can0 080#000003C315C10505
(1676143424.674657) can0 06C#0008171800000080
(1676143424.675602) can0 07E#003B9D62EF04E020
(1676143424.679202) can0 0DF#0100000000000000
(1676143424.680201) can0 160#0000000008000000
(1676143424.689659) can0 07A#0100000000000000
(1676143424.690597) can0 0A3#000000E111040040
(1676143424.692781) can0 201#0000000000000000
(1676143424.694518) can0 302#41001F1713FFFFFF
(1676143424.699244) can0 230#0000000000120000
(1676143424.700244) can0 07D#0020000000000000
(1676143424.701226) can0 245#0001400000800093
(1676143424.702183) can0 440#3207500002258000
(1676143424.703131) can0 0B0#E1000822E11E0C00
(1676143424.704440) can0 06C#0008171800000080
(1676143424.707953) can0 0F7#021A01C080910380
(1676143424.708967) can0 214#0000000000000000
(1676143424.714620) can0 400#0B00000001060100
(1676143424.715553) can0 0FD#6370C819E1000000
(1676143424.716527) can0 405#05000000000008CA
(1676143424.719254) can0 0DF#0100000000000000
(1676143424.721726) can0 080#000003C315C10505
(1676143424.724124) can0 2A0#2D2F00000003C315
(1676143424.725064) can0 07E#003B9D62EE04E020
(1676143424.726007) can0 110#4429D02F4000BF04
(1676143424.729069) can0 180#3DD8000003830104
(1676143424.730084) can0 07A#0100000000000000
(1676143424.731048) can0 0A3#000000C111040040
(1676143424.732012) can0 102#0000001C8003C315
(1676143424.733008) can0 160#0000000008000000
(1676143424.734015) can0 304#0000000000000000
(1676143424.734992) can0 06C#0008171800000080
(1676143424.735926) can0 335#590D00C21A000000
(1676143424.739203) can0 07D#0020000000000000
(1676143424.744184) can0 301#0400300000000000
(1676143424.745684) can0 188#0301000000000000
(1676143424.749327) can0 310#8C08000000920800
(1676143424.752667) can0 0B0#E2000822E11E0C00
(1676143424.753608) can0 455#700440008D03C315
(1676143424.754544) can0 496#C02D3C5F00000000
(1676143424.757905) can0 0F7#021A01C080910300
(1676143424.758919) can0 214#0000000000000000
(1676143424.759926) can0 0DF#0100000000000000
(1676143424.760893) can0 2F0#0000300047B20000
(1676143424.762689) can0 511#4712000105000000
(1676143424.764375) can0 06C#0008171800000080
(1676143424.765303) can0 0FD#4370D819E1000000
(1676143424.769628) can0 07A#0100000000000000
(1676143424.770601) can0 0A3#000000C111040040
(1676143424.771787) can0 080#000003C315C10505
(1676143424.774475) can0 07E#003B9D62ED04E020
(1676143424.784024) can0 07D#0020000000000000
(1676143424.784554) can0 110#4429D02F4000BF04
(1676143424.784942) can0 160#0000000008000000
(1676143424.789304) can0 180#3DD8000003830104
(1676143424.790177) can0 102#0000001C8003C315
(1676143424.794936) can0 06C#0008171800000080
(1676143424.799221) can0 0DF#0100000000000000
(1676143424.800211) can0 230#0000000000120000
(1676143424.801172) can0 440#3207500002258000
(1676143424.802757) can0 0B0#E1000822E11E0C00
(1676143424.808001) can0 0F7#021A01C080910300
(1676143424.809016) can0 214#0000000000000000
(1676143424.810022) can0 07A#0100000000000000
(1676143424.810990) can0 0A3#000000C111040040
(1676143424.814672) can0 0FD#1370F019E1000000
(1676143424.819142) can0 46B#03FFFFFFFFFFFFB0
(1676143424.820140) can0 07D#0020000000000000
(1676143424.821136) can0 188#0301000000000000
(1676143424.822122) can0 080#000003C315C10505
(1676143424.823120) can0 4F0#0000000000008000
(1676143424.824328) can0 06C#0008171800000080
(1676143424.825290) can0 07E#003B9D62ED04E020
(1676143424.829690) can0 160#0000000008000000
(1676143424.834692) can0 330#500303C31503C315
(1676143424.839373) can0 0DF#0100000000000000
(1676143424.840313) can0 32A#1F0830290003C315
(1676143424.844165) can0 2A0#2D2F00000003C315
(1676143424.845104) can0 110#4429D02F4000BF04
(1676143424.849093) can0 180#3DD8000003830104
(1676143424.850105) can0 07A#0100000000000000
(1676143424.851071) can0 0A3#000000C111040040
(1676143424.852037) can0 102#0000001C8003C315
(1676143424.852975) can0 0B0#E1000822E11E0C00
(1676143424.853999) can0 304#0000000000000000
(1676143424.854966) can0 06C#0008171800000080
(1676143424.857977) can0 0F7#021A01C080910380
(1676143424.858991) can0 214#0000000000000000
(1676143424.859990) can0 07D#0020000000000000
(1676143424.860981) can0 245#0001400000800093
(1676143424.861969) can0 488#0000000000005800
(1676143424.864273) can0 0FD#F3708019E1000000
(1676143424.865256) can0 301#0400300000000000
(1676143424.866227) can0 547#0112000047000000
(1676143424.869073) can0 4A0#01010000A618FD10
(1676143424.870039) can0 310#8C08000000920800
(1676143424.871611) can0 080#000003C315C10505
(1676143424.872785) can0 201#0000000000000000
(1676143424.873749) can0 4C0#000000000003C315
(1676143424.874701) can0 07E#003B9D62EF04E020
(1676143424.875657) can0 302#41011F1713FFFFFF
(1676143424.878014) can0 2F0#0000100047B20000
(1676143424.885378) can0 0DF#0100000000000000
(1676143424.885803) can0 06C#0008171800000080
(1676143424.886114) can0 160#0000000008000000
(1676143424.889429) can0 0A3#000000C111040040
(1676143424.890443) can0 07A#0100000000000000
(1676143424.894398) can0 4B0#84010100008030F4
(1676143424.896004) can0 188#0301000000000000
(1676143424.899146) can0 230#0000000000120000
(1676143424.900142) can0 07D#0020000000000000
(1676143424.901099) can0 440#3207500002258000
(1676143424.902091) can0 4BA#2000000000000000
(1676143424.903033) can0 0B0#E2000822E11E0C00
(1676143424.904106) can0 110#4429D02F4000BF04
(1676143424.907840) can0 0F7#021A01C080910300
(1676143424.908875) can0 214#0000000000000000
(1676143424.909815) can0 102#0000001C8003C315
(1676143424.910806) can0 180#3DD8000003830104
(1676143424.914662) can0 06C#0008171800000080
(1676143424.915603) can0 0FD#C3709819E1000000
(1676143424.919160) can0 0DF#0100000000000000
(1676143424.920150) can0 4D0#4000200000000000
(1676143424.921151) can0 080#000003C315C10505
(1676143424.924048) can0 07E#003B9D62ED04E020
(1676143424.929344) can0 0A3#000000C111040040
(1676143424.930355) can0 07A#0100000000000000
(1676143424.931345) can0 160#0000000008000000
(1676143424.939019) can0 07D#0020000000000000
(1676143424.939995) can0 245#0001400000800093
(1676143424.944117) can0 06C#00081C1800000080
(1676143424.952558) can0 0B0#E1000822E11E0C00
(1676143424.956126) can0 45A#0000000000000006
(1676143424.957817) can0 0F7#021A01C080910300
(1676143424.958831) can0 214#0000000000000000
(1676143424.959837) can0 0DF#0100000000000000
(1676143424.960827) can0 400#0C00000001000201
(1676143424.961843) can0 405#1146413237423738
(1676143424.962753) can0 201#0000000000000000
(1676143424.964107) can0 2A0#2D2F00000003C315
(1676143424.965044) can0 0FD#A370A819E1000000
(1676143424.965993) can0 110#4429D02F4000BF04
(1676143424.968930) can0 180#3DD8000003830104
(1676143424.969944) can0 07A#0100000000000000
(1676143424.970907) can0 0A3#000000E111040040
(1676143424.971891) can0 080#000003C315C10505
(1676143424.972857) can0 102#0000001C8003C315
(1676143424.973846) can0 188#0301000000000000
(1676143424.974829) can0 06C#0008171800000080
(1676143424.975783) can0 07E#003B9D62F004E020
(1676143424.976785) can0 304#0000000000000000
(1676143424.977766) can0 501#0302004101000000
(1676143424.979408) can0 07D#0020000000000000
(1676143424.980389) can0 160#0000000008000000
(1676143424.984096) can0 301#0400300000000000
(1676143424.988964) can0 310#8C08000000920800
(1676143424.997855) can0 2F0#0000100047B20000
(1676143424.999032) can0 0DF#0100000000000000
(1676143425.000026) can0 230#0000000000120000
(1676143425.000979) can0 440#3207500002258000
(1676143425.001977) can0 4F0#0000000000008000
(1676143425.002920) can0 0B0#E2000822E11E0C00
(1676143425.004209) can0 06C#0008171800000080
(1676143425.007807) can0 0F7#021A01C080910300
(1676143425.008817) can0 214#0000000000000000
(1676143425.009829) can0 07A#0100000000000000
(1676143425.010795) can0 0A3#000000C111040040
(1676143425.014576) can0 0FD#7370C019E1000000
(1676143425.019228) can0 07D#0020000000000000
(1676143425.020204) can0 245#0001400000800093
(1676143425.021192) can0 080#000003C315C10505
(1676143425.024004) can0 07E#003B9D62EF04E020
(1676143425.024940) can0 110#4429D02F4000BF04
(1676143425.028909) can0 180#3DD8000003830104
(1676143425.029868) can0 102#0000001C8003C315
(1676143425.030861) can0 160#0000000008000000
(1676143425.031812) can0 335#590D00C203000000
(1676143425.034574) can0 06C#00081C1800000080
(1676143425.038986) can0 0DF#0100000000000000
(1676143425.043912) can0 490#0C005E28CC008009
(1676143425.046336) can0 188#0301000000000000
(1676143425.049108) can0 0A3#000000C111040040
(1676143425.050119) can0 07A#0100000000000000
(1676143425.052549) can0 0B0#E1000822E11E0C00
(1676143425.053545) can0 201#0000000000000000
(1676143425.054473) can0 455#700440008D03C315
(1676143425.055426) can0 302#41011F1713FFFFFF
(1676143425.057792) can0 0F7#021A01C080910300
(1676143425.058785) can0 214#0000000000000000
(1676143425.059781) can0 07D#0020000000000000
(1676143425.060707) can0 330#500303C31503C315
(1676143425.061650) can0 48A#9180840224C00080
(1676143425.064373) can0 06C#00081C1800000080
(1676143425.065301) can0 0FD#5370D019E1000000
(1676143425.066280) can0 32A#1F20302A0003C315
(1676143425.070521) can0 080#000003C315C10505
(1676143425.074324) can0 07E#003B9D62EF04E020
(1676143425.079532) can0 0DF#0100000000000000
(1676143425.080428) can0 160#0000000008000000
(1676143425.083969) can0 2A0#2D2F00000003C315
(1676143425.084900) can0 110#4429D02F4000BF04
(1676143425.090204) can0 503#0412000003000000
(1676143425.090527) can0 180#3DD8000003830104
(1676143425.091192) can0 0A3#000000C111040040
(1676143425.091796) can0 102#0000001C8003C315
(1676143425.092808) can0 304#0000000000000000
(1676143425.094535) can0 06C#0008171800000080
(1676143425.098928) can0 230#0000000000120000
(1676143425.099925) can0 07D#0020000000000000
(1676143425.100907) can0 245#0001400000800093
(1676143425.101865) can0 440#3207500002258000
(1676143425.102807) can0 0B0#E1000822E11E0C00
(1676143425.104054) can0 301#0400300000000000
(1676143425.107741) can0 0F7#021A81C080910380
(1676143425.108765) can0 214#0000000000000000
(1676143425.109728) can0 310#8C08000000920800
(1676143425.114383) can0 0FD#2370E819E1000000
(1676143425.117794) can0 2F0#0000100047B20000
(1676143425.118954) can0 0DF#0100000000000000
(1676143425.120483) can0 080#000003C315C18505
(1676143425.121526) can0 188#0301000000000000
(1676143425.124083) can0 06C#0008171800000080
(1676143425.125033) can0 07E#003B9D62EF04E020
(1676143425.128973) can0 0A3#000000C111040040
(1676143425.129990) can0 07A#0100000000000000
(1676143425.130982) can0 160#0000000008000000
(1676143425.139053) can0 07D#0020000000000000
(1676143425.142530) can0 201#0000000000000000
(1676143425.143905) can0 110#4429D02F4000BF04
(1676143425.148824) can0 180#3DD8000003830104
(1676143425.149778) can0 102#0000001C8003C315
(1676143425.152479) can0 0B0#E2000822E11E0C00
(1676143425.154719) can0 06C#00081C1800000080
(1676143425.157731) can0 0F7#021A01C080910380
(1676143425.158756) can0 214#0000000000000000
(1676143425.159751) can0 0DF#0100000000000000
(1676143425.164018) can0 0FD#0370F819E1000000
(1676143425.168874) can0 0A3#000000C111040040
(1676143425.169882) can0 07A#0100000000000000
(1676143425.170870) can0 080#000003C315C10505
(1676143425.174284) can0 07E#003B9D62EE04E020
(1676143425.178902) can0 46B#03FFFFFFFFFFFF30
(1676143425.179906) can0 07D#0020000000000000
(1676143425.180891) can0 160#0000000008000000
(1676143425.181866) can0 245#0001400000800093
(1676143425.182865) can0 4F0#0000000000008000
(1676143425.184053) can0 06C#0008171800000080
(1676143425.193850) can0 504#0502000104000000
(1676143425.196828) can0 188#0301000000000000
(1676143425.199172) can0 0DF#0100000000000000
(1676143425.200157) can0 230#0000000000120000
(1676143425.201132) can0 440#3207500002258000
(1676143425.202472) can0 0B0#E1000822E11E0C00
(1676143425.203970) can0 2A0#2D2F00000003C315
(1676143425.204909) can0 110#4429D02F4000BF04
(1676143425.207700) can0 0F7#021A01C080910300
(1676143425.208727) can0 214#0000000000000000
(1676143425.209731) can0 07A#0100000000000000
(1676143425.210694) can0 0A3#000000C111040040
(1676143425.211659) can0 102#0000001C8003C315
(1676143425.212653) can0 180#3DD8000003830104
(1676143425.213656) can0 304#0000000000000000
(1676143425.214651) can0 06C#0008171800000080
(1676143425.215580) can0 0FD#D3709019E1000000
(1676143425.216546) can0 400#0D02010201020202
(1676143425.217505) can0 405#01674179998103EF
(1676143425.219023) can0 07D#0020000000000000
(1676143425.220237) can0 080#000003C315C10505
(1676143425.221233) can0 488#0000000000005800
(1676143425.223845) can0 07E#003B9D62EF04E020
(1676143425.224836) can0 301#0400300000000000
(1676143425.228873) can0 310#8C08000000920800
(1676143425.229863) can0 160#0000000008000000
(1676143425.232524) can0 201#0000000000000000
(1676143425.234301) can0 302#4101201713FFFFFF
(1676143425.237727) can0 2F0#0000100047B20000
(1676143425.238993) can0 0DF#0100000000000000
(1676143425.244088) can0 06C#0008171800000080
(1676143425.248727) can0 0A3#000000C111040040
(1676143425.249751) can0 07A#0100000000000000
(1676143425.252442) can0 0B0#E2000822E11E0C00
(1676143425.257672) can0 0F7#021A01C080910380
(1676143425.258686) can0 214#0000000000000000
(1676143425.259687) can0 07D#0020000000000000
(1676143425.260745) can0 245#0001400000800093
(1676143425.263891) can0 0FD#B370A019E1000000
(1676143425.264840) can0 110#4429D02F4000BF04
(1676143425.268687) can0 102#0000001C8003C315
(1676143425.269678) can0 180#3DD8000003830104
(1676143425.270665) can0 080#000003C315C10505
(1676143425.271833) can0 188#0301000000000000
(1676143425.274353) can0 06C#0008171800000080
(1676143425.275299) can0 07E#003B9D62EF04E020
(1676143425.278890) can0 0DF#0100000000000000
(1676143425.279895) can0 160#0000000008000000
(1676143425.283816) can0 330#500303C31503C315
(1676143425.288606) can0 0A3#000000E111040040
(1676143425.289622) can0 07A#0100000000000000
(1676143425.290579) can0 32A#1F28302A0003C315
(1676143425.298790) can0 230#0000000000120000
(1676143425.299791) can0 07D#0020000000000000
(1676143425.300747) can0 440#3207500002258000
(1676143425.302408) can0 0B0#E1000822E11E0C00
(1676143425.303986) can0 06C#0008171800000080
(1676143425.304961) can0 505#1102000105000000
(1676143425.307648) can0 0F7#021A01C080910300
(1676143425.308661) can0 214#0000000000000000
(1676143425.314336) can0 0FD#8370B819E1000000
(1676143425.316911) can0 45A#0000000000000006
(1676143425.318988) can0 0DF#0100000000000000
(1676143425.319978) can0 080#000003C315C10505
(1676143425.322462) can0 201#0000000000000000
(1676143425.323763) can0 2A0#2D2F00000003C315
(1676143425.324714) can0 07E#003B9D62EE04E020
(1676143425.325653) can0 110#4429D02F4000BF04
(1676143425.328585) can0 0A3#000000C111040040
(1676143425.329602) can0 07A#0100000000000000
(1676143425.330565) can0 102#0000001C8003C315
(1676143425.331552) can0 160#0000000008000000
(1676143425.332542) can0 180#3DD8000003830104
(1676143425.333548) can0 304#0000000000000000
(1676143425.334502) can0 335#590D00C203000000
(1676143425.335483) can0 06C#0008171800000080
(1676143425.338918) can0 07D#0020000000000000
(1676143425.339902) can0 245#0001400000800093
(1676143425.343774) can0 301#0400300000000000
(1676143425.346965) can0 188#0301000000000000
(1676143425.348825) can0 310#8C08000000920800
(1676143425.352383) can0 0B0#E1000822E11E0C00
(1676143425.353302) can0 455#700440008D03C315
(1676143425.354275) can0 496#C02D3C5F00000000
(1676143425.357619) can0 0F7#021A01C080910300
(1676143425.358632) can0 214#0000000000000000
(1676143425.359675) can0 0DF#0100000000000000
(1676143425.360609) can0 2F0#0000100047B20000
(1676143425.361604) can0 4F0#0000000000008000
(1676143425.364028) can0 06C#00081C1800000080
(1676143425.364967) can0 0FD#6370C819E1000000
(1676143425.368512) can0 0A3#000000C111040040
(1676143425.369526) can0 07A#0100000000000000
(1676143425.370516) can0 080#000003C315C10505
(1676143425.374300) can0 07E#003B9D62ED04E020
(1676143425.379085) can0 07D#0020000000000000
(1676143425.383440) can0 160#0000000008000000
(1676143425.384087) can0 110#4429D02F4000BF04
(1676143425.388550) can0 102#0000001C8003C315
(1676143425.389528) can0 180#3DD8000003830104
(1676143425.394424) can0 06C#0008171800000080
(1676143425.398942) can0 0DF#0100000000000000
(1676143425.399918) can0 230#0000000000120000
(1676143425.400883) can0 440#3207500002258000
(1676143425.402478) can0 0B0#E1000822E11E0C00
(1676143425.407735) can0 0F7#021A01C080910380
(1676143425.408685) can0 0A3#000000C111040040
(1676143425.409687) can0 07A#0100000000000000
(1676143425.410721) can0 214#0000000000000000
(1676143425.412562) can0 201#0000000000000000
(1676143425.413491) can0 511#4712000105000000
(1676143425.414429) can0 0FD#3370E019E1000000
(1676143425.415401) can0 302#4100201713FFFFFF
(1676143425.419099) can0 07D#0020000000000000
(1676143425.420132) can0 080#000003C315C10505
(1676143425.424677) can0 245#0001400000800093
(1676143425.425084) can0 188#0301000000000000
(1676143425.426117) can0 07E#003B9D62EC04E020
(1676143425.429364) can0 160#0000000008000000
(1676143425.439041) can0 0DF#0100000000000000
(1676143425.443733) can0 2A0#2D2F00000003C315
(1676143425.444676) can0 110#4429D02F4000BF04
(1676143425.448429) can0 0A3#000000C111040040
(1676143425.449442) can0 07A#0100000000000000
(1676143425.450422) can0 102#0000001C8003C315
(1676143425.451410) can0 180#3DD8000003830104
(1676143425.452402) can0 304#0000000000000000
(1676143425.453356) can0 0B0#E1000822E11E0C00
(1676143425.454514) can0 06C#0008171800000080
(1676143425.457669) can0 0F7#021A01C080910300
(1676143425.458695) can0 214#0000000000000000
(1676143425.459682) can0 07D#0020000000000000
(1676143425.460688) can0 400#0E02040101010101
(1676143425.461596) can0 405#023831003803C315
(1676143425.463837) can0 0FD#1370F019E1000000
(1676143425.464830) can0 301#0400300000000000
(1676143425.468970) can0 310#8C08000000920800
(1676143425.469957) can0 080#000003C315C10505
(1676143425.474192) can0 07E#003B9D62EB04E020
(1676143425.477696) can0 2F0#0000100047BC0000
(1676143425.479034) can0 0DF#0100000000000000
(1676143425.482750) can0 160#0000000008000000
(1676143425.483850) can0 06C#00081C1800000080
(1676143425.488282) can0 0A3#000000C111040040
(1676143425.489308) can0 07A#0100000000000000
(1676143425.494072) can0 490#0C005F28CC018009
(1676143425.497273) can0 188#0301000000000000
(1676143425.498888) can0 230#0000000000120000
(1676143425.499884) can0 07D#0020000000000000
(1676143425.500868) can0 245#0001400000800093
(1676143425.501831) can0 440#3207500002258000
(1676143425.502767) can0 0B0#E2000822E11E0C00
(1676143425.503710) can0 110#4429D02F4000BF04
(1676143425.504718) can0 201#0000000000000000
(1676143425.507561) can0 0F7#021A01C080910300
(1676143425.508528) can0 102#0000001C8003C315
(1676143425.509518) can0 180#3DD8000003830104
(1676143425.510532) can0 214#0000000000000000
(1676143425.511469) can0 330#500303C31503C315
(1676143425.512389) can0 48A#9180848224C00080
(1676143425.514617) can0 06C#0008171800000080
(1676143425.515524) can0 0FD#E3708819E1000000
(1676143425.516483) can0 32A#1F28302A0003C315
(1676143425.518882) can0 0DF#0100000000000000
(1676143425.519871) can0 080#000003C315C10505
(1676143425.523651) can0 07E#003B9D62EC04E020
(1676143425.524617) can0 547#0112000047000000
(1676143425.528172) can0 0A3#000000C111040040
(1676143425.529195) can0 07A#0100000000000000
(1676143425.530174) can0 160#0000000008000000
(1676143425.538699) can0 46B#04FFFFFFFFFFFFB0
(1676143425.539689) can0 07D#0020000000000000
(1676143425.540689) can0 4F0#0000000000008000
(1676143425.543677) can0 06C#0008171800000080
(1676143425.552294) can0 0B0#E1000822E11E0C00
(1676143425.557521) can0 0F7#021A01C080910300
(1676143425.558531) can0 214#0000000000000000
(1676143425.559536) can0 0DF#0100000000000000
(1676143425.563668) can0 2A0#2D2F00000003C315
(1676143425.564610) can0 0FD#C3709819E1000000
(1676143425.565553) can0 110#4429D02F4000BF04
(1676143425.568101) can0 0A3#000000E111040040
(1676143425.569066) can0 102#0000001C8003C315
(1676143425.570080) can0 07A#0100000000000000
(1676143425.571069) can0 080#000003C315C10505
(1676143425.572059) can0 180#3DD8000003830104
(1676143425.573055) can0 188#0301000000000000
(1676143425.574059) can0 304#0000000000000000
(1676143425.575042) can0 06C#0008171800000080
(1676143425.575982) can0 07E#003B9D62EA04E020
(1676143425.578854) can0 07D#0020000000000000
(1676143425.579894) can0 160#0000000008000000
(1676143425.580895) can0 245#0001400000800093
(1676143425.581821) can0 488#0000000000005800
(1676143425.583707) can0 301#0400300000000000
(1676143425.588633) can0 4A0#01010000A617FD0F
(1676143425.589600) can0 310#8C08000000920800
(1676143425.592324) can0 201#0000000000000000
(1676143425.593293) can0 4C0#000000000003C315
(1676143425.594277) can0 302#4101201713FFFFFF
(1676143425.597557) can0 2F0#0000100047BC0000
(1676143425.598740) can0 0DF#0100000000000000
(1676143425.599730) can0 230#0000000000120000
(1676143425.600687) can0 440#3207500002258000
(1676143425.602260) can0 0B0#E2000822E11E0C00
(1676143425.604012) can0 06C#0008171800000080
(1676143425.607512) can0 0F7#021A81C080910380
(1676143425.608478) can0 0A3#000000C111040040
(1676143425.609491) can0 07A#0100000000000000
(1676143425.610505) can0 214#0000000000000000
(1676143425.614128) can0 4B0#84010100008030F5
(1676143425.615053) can0 0FD#9370B019E1000000
(1676143425.618879) can0 4BA#2000000000000000
(1676143425.619864) can0 07D#0020000000000000
(1676143425.620836) can0 080#000003C315C18505
(1676143425.623568) can0 07E#003B9D62EB04E020
(1676143425.624508) can0 110#4429D02F4000BF04
(1676143425.627995) can0 102#0000001C8003C315
(1676143425.628984) can0 180#3DD8000003830104
(1676143425.629974) can0 160#0000000008000000
(1676143425.630908) can0 335#590D00C21A000000
(1676143425.634203) can0 06C#0008171800000080
(1676143425.635176) can0 501#0302004101000000
(1676143425.638749) can0 0DF#0100000000000000
(1676143425.639741) can0 4D0#4000200000000000
(1676143425.647603) can0 188#0301000000000000
(1676143425.648561) can0 0A3#000000C111040040
(1676143425.649586) can0 07A#0100000000000000
(1676143425.652259) can0 0B0#E1000822E11E0C00
(1676143425.653187) can0 455#700440008D03C315
(1676143425.657481) can0 0F7#021A01C080920380
(1676143425.658491) can0 214#0000000000000000
(1676143425.659492) can0 07D#0020000000000000
(1676143425.660471) can0 245#0001400000800093
(1676143425.663771) can0 06C#0008171800000080
(1676143425.664707) can0 0FD#7370C019E1000000
(1676143425.668776) can0 080#000003C315C10505
(1676143425.674007) can0 07E#003B9D62ED04E020
(1676143425.677672) can0 45A#0000000000000006
(1676143425.678902) can0 0DF#0100000000000000
(1676143425.683346) can0 160#0000000008000000
(1676143425.683880) can0 201#0000000000000000
(1676143425.684699) can0 110#4429D02F4000BF04
(1676143425.688000) can0 0A3#000000C111040040
(1676143425.688942) can0 102#0000001C8003C315
(1676143425.689958) can0 07A#0100000000000000
(1676143425.690946) can0 180#3DD8000003830104
(1676143425.691953) can0 304#0000000000000000
(1676143425.694544) can0 06C#0008171800000080
(1676143425.698804) can0 230#0000000000120000
(1676143425.699805) can0 07D#0020000000000000
(1676143425.700761) can0 440#3207500002258000
(1676143425.702319) can0 0B0#E1000822E11E0C00
(1676143425.703808) can0 301#0400300000000000
(1676143425.707571) can0 0F7#021A01C080920300
(1676143425.708585) can0 214#0000000000000000
(1676143425.709551) can0 310#8C08000000920800
(1676143425.714167) can0 400#0F01020102020000
(1676143425.715088) can0 0FD#4370D819E1000000
(1676143425.716098) can0 405#0000000000000000
(1676143425.717607) can0 2F0#0000100047BC0000
(1676143425.718593) can0 080#000003C315C10505
(1676143425.719600) can0 0DF#0100000000000000
(1676143425.720599) can0 4F0#0000000000008000
(1676143425.722869) can0 188#0301000000000000
(1676143425.723975) can0 06C#0008171800000080
(1676143425.724801) can0 07E#003B9D62EE04E020
(1676143425.727921) can0 0A3#000000C111040040
(1676143425.729200) can0 07A#0100000000000000
(1676143425.730192) can0 160#0000000008000000
(1676143425.734175) can0 330#500303C31503C315
(1676143425.739076) can0 07D#0020000000000000
(1676143425.740058) can0 245#0001400000800093
(1676143425.741038) can0 32A#1F00302A0003C315
(1676143425.743623) can0 110#4E2902FD4000BF02
(1676143425.747593) can0 503#0412000003000000
(1676143425.748549) can0 102#0000001C8003C315
(1676143425.749540) can0 180#3DD8000003830104
(1676143425.752293) can0 0B0#E1000822E11E0C00
(1676143425.754298) can0 06C#0008171800000080
(1676143425.757558) can0 0F7#021A01C080920300
(1676143425.758571) can0 214#0000000000000000
(1676143425.759577) can0 0DF#0100000000000000
(1676143425.763728) can0 0FD#2370E819E1000000
(1676143425.767842) can0 0A3#000000C111040040
(1676143425.768825) can0 080#000003C315C10505
(1676143425.769839) can0 07A#0100000000000000
(1676143425.772366) can0 201#0000000000000000
(1676143425.774138) can0 07E#003B9D62EF04E020
(1676143425.775100) can0 302#4101201713FFFFFF
(1676143425.778948) can0 07D#0020000000000000
(1676143425.783617) can0 160#0000000008000000
(1676143425.784050) can0 06C#0008171800000080
(1676143425.797929) can0 188#0301000000000000
(1676143425.798929) can0 0DF#0100000000000000
(1676143425.799919) can0 230#0000000000120000
(1676143425.800914) can0 440#3207500002258000
(1676143425.802205) can0 0B0#E1000822E11E4800
(1676143425.803563) can0 2A0#2D2F00000003C315
(1676143425.804523) can0 110#442902FD4000BF02
(1676143425.807435) can0 0F7#021A01C080920300
(1676143425.808396) can0 0A3#000000C111040040
(1676143425.809410) can0 07A#0100000000000000
(1676143425.810375) can0 102#0000001C8003C315
(1676143425.811365) can0 180#3DD8000003830104
(1676143425.812378) can0 214#0000000000000000
(1676143425.813386) can0 304#0000000000000000
(1676143425.814370) can0 06C#0008171800000080
(1676143425.815327) can0 0FD#F3708019E1000000
(1676143425.818309) can0 080#000003C315C10505
(1676143425.819307) can0 07D#0020000000000000
(1676143425.820289) can0 245#0001400000800093
(1676143425.823472) can0 07E#003B9D62F104E020
